!Keysight Technologies,E5063A,MY54503975,A.05.08
!Date: Thu Mar 06 04:40:21 2025
!Data & Calibration Information:
!Freq	S11:NONE(--)	S21:RESPT(ON)	S12:NONE(--)	S22:NONE(--)
# Hz S RI R 50
1400000000.000	2.412095e-001	7.769032e-001	-0.000000e+000	-0.000000e+000	0.000000e+000	0.000000e+000	0.000000e+000	0.000000e+000
1400100000.000	2.429841e-001	7.762989e-001	-0.000000e+000	-0.000000e+000	0.000000e+000	0.000000e+000	0.000000e+000	0.000000e+000
1400200000.000	2.447535e-001	7.757188e-001	-0.000000e+000	-0.000000e+000	0.000000e+000	0.000000e+000	0.000000e+000	0.000000e+000
1400300000.000	2.465393e-001	7.751323e-001	-0.000000e+000	-0.000000e+000	0.000000e+000	0.000000e+000	0.000000e+000	0.000000e+000
1400400000.000	2.484918e-001	7.744800e-001	-0.000000e+000	-0.000000e+000	0.000000e+000	0.000000e+000	0.000000e+000	0.000000e+000
1400500000.000	2.502253e-001	7.738949e-001	-0.000000e+000	-0.000000e+000	0.000000e+000	0.000000e+000	0.000000e+000	0.000000e+000
1400600000.000	2.522655e-001	7.732325e-001	-0.000000e+000	-0.000000e+000	0.000000e+000	0.000000e+000	0.000000e+000	0.000000e+000
1400700000.000	2.543412e-001	7.725560e-001	-0.000000e+000	-0.000000e+000	0.000000e+000	0.000000e+000	0.000000e+000	0.000000e+000
1400800000.000	2.565792e-001	7.718389e-001	-0.000000e+000	-0.000000e+000	0.000000e+000	0.000000e+000	0.000000e+000	0.000000e+000
1400900000.000	2.585373e-001	7.711908e-001	-0.000000e+000	-0.000000e+000	0.000000e+000	0.000000e+000	0.000000e+000	0.000000e+000
1401000000.000	2.603516e-001	7.705085e-001	-0.000000e+000	-0.000000e+000	0.000000e+000	0.000000e+000	0.000000e+000	0.000000e+000
1401100000.000	2.617176e-001	7.699500e-001	-0.000000e+000	-0.000000e+000	0.000000e+000	0.000000e+000	0.000000e+000	0.000000e+000
1401200000.000	2.632655e-001	7.693454e-001	-0.000000e+000	-0.000000e+000	0.000000e+000	0.000000e+000	0.000000e+000	0.000000e+000
1401300000.000	2.651205e-001	7.686634e-001	-0.000000e+000	-0.000000e+000	0.000000e+000	0.000000e+000	0.000000e+000	0.000000e+000
1401400000.000	2.673069e-001	7.679264e-001	-0.000000e+000	-0.000000e+000	0.000000e+000	0.000000e+000	0.000000e+000	0.000000e+000
1401500000.000	2.695021e-001	7.671710e-001	-0.000000e+000	-0.000000e+000	0.000000e+000	0.000000e+000	0.000000e+000	0.000000e+000
1401600000.000	2.714367e-001	7.664812e-001	-0.000000e+000	-0.000000e+000	0.000000e+000	0.000000e+000	0.000000e+000	0.000000e+000
1401700000.000	2.732814e-001	7.658250e-001	-0.000000e+000	-0.000000e+000	0.000000e+000	0.000000e+000	0.000000e+000	0.000000e+000
1401800000.000	2.749591e-001	7.651646e-001	-0.000000e+000	-0.000000e+000	0.000000e+000	0.000000e+000	0.000000e+000	0.000000e+000
1401900000.000	2.769655e-001	7.644350e-001	-0.000000e+000	-0.000000e+000	0.000000e+000	0.000000e+000	0.000000e+000	0.000000e+000
1402000000.000	2.789168e-001	7.637017e-001	-0.000000e+000	-0.000000e+000	0.000000e+000	0.000000e+000	0.000000e+000	0.000000e+000
1402100000.000	2.807553e-001	7.630395e-001	-0.000000e+000	-0.000000e+000	0.000000e+000	0.000000e+000	0.000000e+000	0.000000e+000
1402200000.000	2.822906e-001	7.624568e-001	-0.000000e+000	-0.000000e+000	0.000000e+000	0.000000e+000	0.000000e+000	0.000000e+000
1402300000.000	2.839084e-001	7.618775e-001	-0.000000e+000	-0.000000e+000	0.000000e+000	0.000000e+000	0.000000e+000	0.000000e+000
1402400000.000	2.857717e-001	7.612079e-001	-0.000000e+000	-0.000000e+000	0.000000e+000	0.000000e+000	0.000000e+000	0.000000e+000
1402500000.000	2.880248e-001	7.603886e-001	-0.000000e+000	-0.000000e+000	0.000000e+000	0.000000e+000	0.000000e+000	0.000000e+000
1402600000.000	2.902634e-001	7.595816e-001	-0.000000e+000	-0.000000e+000	0.000000e+000	0.000000e+000	0.000000e+000	0.000000e+000
1402700000.000	2.921479e-001	7.588156e-001	-0.000000e+000	-0.000000e+000	0.000000e+000	0.000000e+000	0.000000e+000	0.000000e+000
1402800000.000	2.937289e-001	7.581358e-001	-0.000000e+000	-0.000000e+000	0.000000e+000	0.000000e+000	0.000000e+000	0.000000e+000
1402900000.000	2.953211e-001	7.574465e-001	-0.000000e+000	-0.000000e+000	0.000000e+000	0.000000e+000	0.000000e+000	0.000000e+000
1403000000.000	2.970939e-001	7.566891e-001	-0.000000e+000	-0.000000e+000	0.000000e+000	0.000000e+000	0.000000e+000	0.000000e+000
1403100000.000	2.991141e-001	7.558677e-001	-0.000000e+000	-0.000000e+000	0.000000e+000	0.000000e+000	0.000000e+000	0.000000e+000
1403200000.000	3.011474e-001	7.550387e-001	-0.000000e+000	-0.000000e+000	0.000000e+000	0.000000e+000	0.000000e+000	0.000000e+000
1403300000.000	3.029950e-001	7.543529e-001	-0.000000e+000	-0.000000e+000	0.000000e+000	0.000000e+000	0.000000e+000	0.000000e+000
1403400000.000	3.047542e-001	7.537156e-001	-0.000000e+000	-0.000000e+000	0.000000e+000	0.000000e+000	0.000000e+000	0.000000e+000
1403500000.000	3.067081e-001	7.529998e-001	-0.000000e+000	-0.000000e+000	0.000000e+000	0.000000e+000	0.000000e+000	0.000000e+000
1403600000.000	3.087773e-001	7.521973e-001	-0.000000e+000	-0.000000e+000	0.000000e+000	0.000000e+000	0.000000e+000	0.000000e+000
1403700000.000	3.108412e-001	7.513425e-001	-0.000000e+000	-0.000000e+000	0.000000e+000	0.000000e+000	0.000000e+000	0.000000e+000
1403800000.000	3.125085e-001	7.505810e-001	-0.000000e+000	-0.000000e+000	0.000000e+000	0.000000e+000	0.000000e+000	0.000000e+000
1403900000.000	3.139630e-001	7.498502e-001	-0.000000e+000	-0.000000e+000	0.000000e+000	0.000000e+000	0.000000e+000	0.000000e+000
1404000000.000	3.153793e-001	7.491425e-001	-0.000000e+000	-0.000000e+000	0.000000e+000	0.000000e+000	0.000000e+000	0.000000e+000
1404100000.000	3.172423e-001	7.482974e-001	-0.000000e+000	-0.000000e+000	0.000000e+000	0.000000e+000	0.000000e+000	0.000000e+000
1404200000.000	3.193094e-001	7.473749e-001	0.000000e+000	-0.000000e+000	0.000000e+000	0.000000e+000	0.000000e+000	0.000000e+000
1404300000.000	3.213978e-001	7.464647e-001	0.000000e+000	-0.000000e+000	0.000000e+000	0.000000e+000	0.000000e+000	0.000000e+000
1404400000.000	3.232880e-001	7.456279e-001	0.000000e+000	-0.000000e+000	0.000000e+000	0.000000e+000	0.000000e+000	0.000000e+000
1404500000.000	3.250947e-001	7.448105e-001	0.000000e+000	-0.000000e+000	0.000000e+000	0.000000e+000	0.000000e+000	0.000000e+000
1404600000.000	3.268795e-001	7.439965e-001	0.000000e+000	-0.000000e+000	0.000000e+000	0.000000e+000	0.000000e+000	0.000000e+000
1404700000.000	3.288805e-001	7.431364e-001	0.000000e+000	-0.000000e+000	0.000000e+000	0.000000e+000	0.000000e+000	0.000000e+000
1404800000.000	3.308194e-001	7.422897e-001	0.000000e+000	-0.000000e+000	0.000000e+000	0.000000e+000	0.000000e+000	0.000000e+000
1404900000.000	3.325548e-001	7.414997e-001	0.000000e+000	-0.000000e+000	0.000000e+000	0.000000e+000	0.000000e+000	0.000000e+000
1405000000.000	3.340698e-001	7.407776e-001	0.000000e+000	-0.000000e+000	0.000000e+000	0.000000e+000	0.000000e+000	0.000000e+000
1405100000.000	3.357464e-001	7.399948e-001	0.000000e+000	-0.000000e+000	0.000000e+000	0.000000e+000	0.000000e+000	0.000000e+000
1405200000.000	3.376024e-001	7.391525e-001	0.000000e+000	-0.000000e+000	0.000000e+000	0.000000e+000	0.000000e+000	0.000000e+000
1405300000.000	3.397634e-001	7.381696e-001	0.000000e+000	-0.000000e+000	0.000000e+000	0.000000e+000	0.000000e+000	0.000000e+000
1405400000.000	3.418165e-001	7.372319e-001	0.000000e+000	-0.000000e+000	0.000000e+000	0.000000e+000	0.000000e+000	0.000000e+000
1405500000.000	3.436891e-001	7.363329e-001	0.000000e+000	-0.000000e+000	0.000000e+000	0.000000e+000	0.000000e+000	0.000000e+000
1405600000.000	3.452810e-001	7.355401e-001	0.000000e+000	-0.000000e+000	0.000000e+000	0.000000e+000	0.000000e+000	0.000000e+000
1405700000.000	3.469283e-001	7.347258e-001	0.000000e+000	-0.000000e+000	0.000000e+000	0.000000e+000	0.000000e+000	0.000000e+000
1405800000.000	3.486511e-001	7.338734e-001	0.000000e+000	-0.000000e+000	0.000000e+000	0.000000e+000	0.000000e+000	0.000000e+000
1405900000.000	3.504506e-001	7.329688e-001	0.000000e+000	-0.000000e+000	0.000000e+000	0.000000e+000	0.000000e+000	0.000000e+000
1406000000.000	3.522235e-001	7.320884e-001	0.000000e+000	-0.000000e+000	0.000000e+000	0.000000e+000	0.000000e+000	0.000000e+000
1406100000.000	3.539771e-001	7.311924e-001	0.000000e+000	-0.000000e+000	0.000000e+000	0.000000e+000	0.000000e+000	0.000000e+000
1406200000.000	3.556835e-001	7.303376e-001	0.000000e+000	-0.000000e+000	0.000000e+000	0.000000e+000	0.000000e+000	0.000000e+000
1406300000.000	3.575894e-001	7.294020e-001	0.000000e+000	-0.000000e+000	0.000000e+000	0.000000e+000	0.000000e+000	0.000000e+000
1406400000.000	3.595768e-001	7.284186e-001	0.000000e+000	-0.000000e+000	0.000000e+000	0.000000e+000	0.000000e+000	0.000000e+000
1406500000.000	3.615788e-001	7.274279e-001	0.000000e+000	-0.000000e+000	0.000000e+000	0.000000e+000	0.000000e+000	0.000000e+000
1406600000.000	3.633104e-001	7.265440e-001	0.000000e+000	-0.000000e+000	0.000000e+000	0.000000e+000	0.000000e+000	0.000000e+000
1406700000.000	3.648871e-001	7.256992e-001	0.000000e+000	-0.000000e+000	0.000000e+000	0.000000e+000	0.000000e+000	0.000000e+000
1406800000.000	3.663960e-001	7.248692e-001	0.000000e+000	-0.000000e+000	0.000000e+000	0.000000e+000	0.000000e+000	0.000000e+000
1406900000.000	3.680354e-001	7.239835e-001	0.000000e+000	-0.000000e+000	0.000000e+000	0.000000e+000	0.000000e+000	0.000000e+000
1407000000.000	3.699648e-001	7.229918e-001	0.000000e+000	-0.000000e+000	0.000000e+000	0.000000e+000	0.000000e+000	0.000000e+000
1407100000.000	3.719169e-001	7.219715e-001	0.000000e+000	-0.000000e+000	0.000000e+000	0.000000e+000	0.000000e+000	0.000000e+000
1407200000.000	3.737998e-001	7.209808e-001	0.000000e+000	-0.000000e+000	0.000000e+000	0.000000e+000	0.000000e+000	0.000000e+000
1407300000.000	3.755215e-001	7.200825e-001	0.000000e+000	-0.000000e+000	0.000000e+000	0.000000e+000	0.000000e+000	0.000000e+000
1407400000.000	3.772028e-001	7.191630e-001	0.000000e+000	-0.000000e+000	0.000000e+000	0.000000e+000	0.000000e+000	0.000000e+000
1407500000.000	3.790351e-001	7.182000e-001	0.000000e+000	-0.000000e+000	0.000000e+000	0.000000e+000	0.000000e+000	0.000000e+000
1407600000.000	3.808957e-001	7.171978e-001	0.000000e+000	-0.000000e+000	0.000000e+000	0.000000e+000	0.000000e+000	0.000000e+000
1407700000.000	3.826079e-001	7.162778e-001	0.000000e+000	-0.000000e+000	0.000000e+000	0.000000e+000	0.000000e+000	0.000000e+000
1407800000.000	3.841111e-001	7.154275e-001	0.000000e+000	-0.000000e+000	0.000000e+000	0.000000e+000	0.000000e+000	0.000000e+000
1407900000.000	3.856283e-001	7.145632e-001	0.000000e+000	-0.000000e+000	0.000000e+000	0.000000e+000	0.000000e+000	0.000000e+000
1408000000.000	3.873534e-001	7.136202e-001	0.000000e+000	-0.000000e+000	0.000000e+000	0.000000e+000	0.000000e+000	0.000000e+000
1408100000.000	3.892986e-001	7.125633e-001	0.000000e+000	-0.000000e+000	0.000000e+000	0.000000e+000	0.000000e+000	0.000000e+000
1408200000.000	3.913431e-001	7.114872e-001	0.000000e+000	-0.000000e+000	0.000000e+000	0.000000e+000	0.000000e+000	0.000000e+000
1408300000.000	3.932080e-001	7.104839e-001	0.000000e+000	-0.000000e+000	0.000000e+000	0.000000e+000	0.000000e+000	0.000000e+000
1408400000.000	3.948166e-001	7.095736e-001	0.000000e+000	-0.000000e+000	0.000000e+000	0.000000e+000	0.000000e+000	0.000000e+000
1408500000.000	3.963590e-001	7.087095e-001	0.000000e+000	-0.000000e+000	0.000000e+000	0.000000e+000	0.000000e+000	0.000000e+000
1408600000.000	3.980874e-001	7.077357e-001	0.000000e+000	-0.000000e+000	0.000000e+000	0.000000e+000	0.000000e+000	0.000000e+000
1408700000.000	3.998663e-001	7.067450e-001	0.000000e+000	-0.000000e+000	0.000000e+000	0.000000e+000	0.000000e+000	0.000000e+000
1408800000.000	4.016440e-001	7.057229e-001	0.000000e+000	-0.000000e+000	0.000000e+000	0.000000e+000	0.000000e+000	0.000000e+000
1408900000.000	4.033047e-001	7.047736e-001	0.000000e+000	-0.000000e+000	0.000000e+000	0.000000e+000	0.000000e+000	0.000000e+000
1409000000.000	4.049110e-001	7.038442e-001	0.000000e+000	-0.000000e+000	0.000000e+000	0.000000e+000	0.000000e+000	0.000000e+000
1409100000.000	4.067160e-001	7.027897e-001	0.000000e+000	-0.000000e+000	0.000000e+000	0.000000e+000	0.000000e+000	0.000000e+000
1409200000.000	4.086447e-001	7.016857e-001	0.000000e+000	-0.000000e+000	0.000000e+000	0.000000e+000	0.000000e+000	0.000000e+000
1409300000.000	4.105754e-001	7.005595e-001	0.000000e+000	-0.000000e+000	0.000000e+000	0.000000e+000	0.000000e+000	0.000000e+000
1409400000.000	4.123167e-001	6.995103e-001	0.000000e+000	-0.000000e+000	0.000000e+000	0.000000e+000	0.000000e+000	0.000000e+000
1409500000.000	4.138088e-001	6.985705e-001	0.000000e+000	-0.000000e+000	0.000000e+000	0.000000e+000	0.000000e+000	0.000000e+000
1409600000.000	4.152716e-001	6.976246e-001	0.000000e+000	-0.000000e+000	0.000000e+000	0.000000e+000	0.000000e+000	0.000000e+000
1409700000.000	4.168828e-001	6.966217e-001	0.000000e+000	-0.000000e+000	0.000000e+000	0.000000e+000	0.000000e+000	0.000000e+000
1409800000.000	4.187598e-001	6.954867e-001	0.000000e+000	-0.000000e+000	0.000000e+000	0.000000e+000	0.000000e+000	0.000000e+000
1409900000.000	4.205748e-001	6.943691e-001	0.000000e+000	-0.000000e+000	0.000000e+000	0.000000e+000	0.000000e+000	0.000000e+000
1410000000.000	4.223442e-001	6.932594e-001	0.000000e+000	-0.000000e+000	0.000000e+000	0.000000e+000	0.000000e+000	0.000000e+000
1410100000.000	4.239586e-001	6.922158e-001	0.000000e+000	-0.000000e+000	0.000000e+000	0.000000e+000	0.000000e+000	0.000000e+000
1410200000.000	4.256916e-001	6.911270e-001	0.000000e+000	-0.000000e+000	0.000000e+000	0.000000e+000	0.000000e+000	0.000000e+000
1410300000.000	4.274799e-001	6.899829e-001	0.000000e+000	-0.000000e+000	0.000000e+000	0.000000e+000	0.000000e+000	0.000000e+000
1410400000.000	4.293780e-001	6.887888e-001	0.000000e+000	-0.000000e+000	0.000000e+000	0.000000e+000	0.000000e+000	0.000000e+000
1410500000.000	4.309454e-001	6.877652e-001	0.000000e+000	-0.000000e+000	0.000000e+000	0.000000e+000	0.000000e+000	0.000000e+000
1410600000.000	4.324073e-001	6.867812e-001	0.000000e+000	-0.000000e+000	0.000000e+000	0.000000e+000	0.000000e+000	0.000000e+000
1410700000.000	4.338998e-001	6.857891e-001	0.000000e+000	-0.000000e+000	0.000000e+000	0.000000e+000	0.000000e+000	0.000000e+000
1410800000.000	4.355960e-001	6.846917e-001	0.000000e+000	-0.000000e+000	0.000000e+000	0.000000e+000	0.000000e+000	0.000000e+000
1410900000.000	4.374913e-001	6.834771e-001	0.000000e+000	-0.000000e+000	0.000000e+000	0.000000e+000	0.000000e+000	0.000000e+000
1411000000.000	4.393671e-001	6.822646e-001	0.000000e+000	-0.000000e+000	0.000000e+000	0.000000e+000	0.000000e+000	0.000000e+000
1411100000.000	4.410870e-001	6.811186e-001	0.000000e+000	-0.000000e+000	0.000000e+000	0.000000e+000	0.000000e+000	0.000000e+000
1411200000.000	4.426604e-001	6.800722e-001	0.000000e+000	-0.000000e+000	0.000000e+000	0.000000e+000	0.000000e+000	0.000000e+000
1411300000.000	4.442389e-001	6.790042e-001	0.000000e+000	-0.000000e+000	0.000000e+000	0.000000e+000	0.000000e+000	0.000000e+000
1411400000.000	4.459274e-001	6.779169e-001	0.000000e+000	-0.000000e+000	0.000000e+000	0.000000e+000	0.000000e+000	0.000000e+000
1411500000.000	4.475701e-001	6.768111e-001	0.000000e+000	-0.000000e+000	0.000000e+000	0.000000e+000	0.000000e+000	0.000000e+000
1411600000.000	4.492153e-001	6.756973e-001	0.000000e+000	-0.000000e+000	0.000000e+000	0.000000e+000	0.000000e+000	0.000000e+000
1411700000.000	4.508030e-001	6.746415e-001	0.000000e+000	-0.000000e+000	0.000000e+000	0.000000e+000	0.000000e+000	0.000000e+000
1411800000.000	4.523977e-001	6.735267e-001	0.000000e+000	-0.000000e+000	0.000000e+000	0.000000e+000	0.000000e+000	0.000000e+000
1411900000.000	4.541165e-001	6.723745e-001	0.000000e+000	-0.000000e+000	0.000000e+000	0.000000e+000	0.000000e+000	0.000000e+000
1412000000.000	4.559331e-001	6.711549e-001	0.000000e+000	-0.000000e+000	0.000000e+000	0.000000e+000	0.000000e+000	0.000000e+000
1412100000.000	4.577437e-001	6.699316e-001	0.000000e+000	-0.000000e+000	0.000000e+000	0.000000e+000	0.000000e+000	0.000000e+000
1412200000.000	4.594559e-001	6.687646e-001	0.000000e+000	-0.000000e+000	0.000000e+000	0.000000e+000	0.000000e+000	0.000000e+000
1412300000.000	4.609591e-001	6.676998e-001	0.000000e+000	-0.000000e+000	0.000000e+000	0.000000e+000	0.000000e+000	0.000000e+000
1412400000.000	4.623874e-001	6.666583e-001	0.000000e+000	-0.000000e+000	0.000000e+000	0.000000e+000	0.000000e+000	0.000000e+000
1412500000.000	4.639598e-001	6.655336e-001	0.000000e+000	-0.000000e+000	0.000000e+000	0.000000e+000	0.000000e+000	0.000000e+000
1412600000.000	4.656527e-001	6.643317e-001	0.000000e+000	-0.000000e+000	0.000000e+000	0.000000e+000	0.000000e+000	0.000000e+000
1412700000.000	4.673852e-001	6.630975e-001	0.000000e+000	-0.000000e+000	0.000000e+000	0.000000e+000	0.000000e+000	0.000000e+000
1412800000.000	4.690911e-001	6.618744e-001	0.000000e+000	-0.000000e+000	0.000000e+000	0.000000e+000	0.000000e+000	0.000000e+000
1412900000.000	4.707001e-001	6.606932e-001	0.000000e+000	-0.000000e+000	0.000000e+000	0.000000e+000	0.000000e+000	0.000000e+000
1413000000.000	4.723236e-001	6.595207e-001	0.000000e+000	-0.000000e+000	0.000000e+000	0.000000e+000	0.000000e+000	0.000000e+000
1413100000.000	4.739831e-001	6.582820e-001	0.000000e+000	-0.000000e+000	0.000000e+000	0.000000e+000	0.000000e+000	0.000000e+000
1413200000.000	4.756950e-001	6.570408e-001	0.000000e+000	-0.000000e+000	0.000000e+000	0.000000e+000	0.000000e+000	0.000000e+000
1413300000.000	4.772669e-001	6.558495e-001	0.000000e+000	-0.000000e+000	0.000000e+000	0.000000e+000	0.000000e+000	0.000000e+000
1413400000.000	4.787961e-001	6.547008e-001	0.000000e+000	-0.000000e+000	0.000000e+000	0.000000e+000	0.000000e+000	0.000000e+000
1413500000.000	4.802487e-001	6.535763e-001	0.000000e+000	-0.000000e+000	0.000000e+000	0.000000e+000	0.000000e+000	0.000000e+000
1413600000.000	4.817541e-001	6.524244e-001	0.000000e+000	-0.000000e+000	0.000000e+000	0.000000e+000	0.000000e+000	0.000000e+000
1413700000.000	4.834845e-001	6.511320e-001	0.000000e+000	-0.000000e+000	0.000000e+000	0.000000e+000	0.000000e+000	0.000000e+000
1413800000.000	4.852938e-001	6.497915e-001	0.000000e+000	-0.000000e+000	0.000000e+000	0.000000e+000	0.000000e+000	0.000000e+000
1413900000.000	4.869783e-001	6.485041e-001	0.000000e+000	-0.000000e+000	0.000000e+000	0.000000e+000	0.000000e+000	0.000000e+000
1414000000.000	4.885539e-001	6.472943e-001	0.000000e+000	-0.000000e+000	0.000000e+000	0.000000e+000	0.000000e+000	0.000000e+000
1414100000.000	4.900699e-001	6.460922e-001	0.000000e+000	-0.000000e+000	0.000000e+000	0.000000e+000	0.000000e+000	0.000000e+000
1414200000.000	4.915717e-001	6.449121e-001	0.000000e+000	-0.000000e+000	0.000000e+000	0.000000e+000	0.000000e+000	0.000000e+000
1414300000.000	4.931641e-001	6.436621e-001	0.000000e+000	-0.000000e+000	0.000000e+000	0.000000e+000	0.000000e+000	0.000000e+000
1414400000.000	4.948237e-001	6.423747e-001	0.000000e+000	-0.000000e+000	0.000000e+000	0.000000e+000	0.000000e+000	0.000000e+000
1414500000.000	4.963158e-001	6.411752e-001	0.000000e+000	-0.000000e+000	0.000000e+000	0.000000e+000	0.000000e+000	0.000000e+000
1414600000.000	4.978898e-001	6.399331e-001	0.000000e+000	-0.000000e+000	0.000000e+000	0.000000e+000	0.000000e+000	0.000000e+000
1414700000.000	4.994244e-001	6.387015e-001	0.000000e+000	-0.000000e+000	0.000000e+000	0.000000e+000	0.000000e+000	0.000000e+000
1414800000.000	5.011436e-001	6.373308e-001	0.000000e+000	-0.000000e+000	0.000000e+000	0.000000e+000	0.000000e+000	0.000000e+000
1414900000.000	5.028369e-001	6.359915e-001	0.000000e+000	-0.000000e+000	0.000000e+000	0.000000e+000	0.000000e+000	0.000000e+000
1415000000.000	5.045108e-001	6.346519e-001	0.000000e+000	-0.000000e+000	0.000000e+000	0.000000e+000	0.000000e+000	0.000000e+000
1415100000.000	5.059608e-001	6.334577e-001	0.000000e+000	-0.000000e+000	0.000000e+000	0.000000e+000	0.000000e+000	0.000000e+000
1415200000.000	5.073149e-001	6.322982e-001	0.000000e+000	-0.000000e+000	0.000000e+000	0.000000e+000	0.000000e+000	0.000000e+000
1415300000.000	5.088138e-001	6.310506e-001	0.000000e+000	-0.000000e+000	0.000000e+000	0.000000e+000	0.000000e+000	0.000000e+000
