!Keysight Technologies,E5063A,MY54503975,A.05.08
!Date: Fri Mar 07 05:33:29 2025
!Data & Calibration Information:
!Freq	S11:NONE(--)	S21:RESPT(ON)	S12:NONE(--)	S22:NONE(--)
# Hz S RI R 50
1400000000.000	-9.509929e-003	7.723240e-001	-0.000000e+000	-0.000000e+000	0.000000e+000	0.000000e+000	0.000000e+000	0.000000e+000
1400100000.000	-7.768989e-003	7.724321e-001	-0.000000e+000	-0.000000e+000	0.000000e+000	0.000000e+000	0.000000e+000	0.000000e+000
1400200000.000	-6.009753e-003	7.725029e-001	-0.000000e+000	-0.000000e+000	0.000000e+000	0.000000e+000	0.000000e+000	0.000000e+000
1400300000.000	-4.243351e-003	7.725660e-001	-0.000000e+000	-0.000000e+000	0.000000e+000	0.000000e+000	0.000000e+000	0.000000e+000
1400400000.000	-2.486087e-003	7.726232e-001	-0.000000e+000	-0.000000e+000	0.000000e+000	0.000000e+000	0.000000e+000	0.000000e+000
1400500000.000	-7.211051e-004	7.726647e-001	-0.000000e+000	-0.000000e+000	0.000000e+000	0.000000e+000	0.000000e+000	0.000000e+000
1400600000.000	1.027217e-003	7.727008e-001	-0.000000e+000	-0.000000e+000	0.000000e+000	0.000000e+000	0.000000e+000	0.000000e+000
1400700000.000	2.756012e-003	7.727316e-001	-0.000000e+000	-0.000000e+000	0.000000e+000	0.000000e+000	0.000000e+000	0.000000e+000
1400800000.000	4.512630e-003	7.726839e-001	-0.000000e+000	-0.000000e+000	0.000000e+000	0.000000e+000	0.000000e+000	0.000000e+000
1400900000.000	6.250300e-003	7.727037e-001	-0.000000e+000	-0.000000e+000	0.000000e+000	0.000000e+000	0.000000e+000	0.000000e+000
1401000000.000	7.995464e-003	7.727122e-001	-0.000000e+000	-0.000000e+000	0.000000e+000	0.000000e+000	0.000000e+000	0.000000e+000
1401100000.000	9.723528e-003	7.727504e-001	-0.000000e+000	-0.000000e+000	0.000000e+000	0.000000e+000	0.000000e+000	0.000000e+000
1401200000.000	1.148787e-002	7.728054e-001	-0.000000e+000	-0.000000e+000	0.000000e+000	0.000000e+000	0.000000e+000	0.000000e+000
1401300000.000	1.326149e-002	7.728181e-001	-0.000000e+000	-0.000000e+000	0.000000e+000	0.000000e+000	0.000000e+000	0.000000e+000
1401400000.000	1.503829e-002	7.728424e-001	-0.000000e+000	-0.000000e+000	0.000000e+000	0.000000e+000	0.000000e+000	0.000000e+000
1401500000.000	1.681694e-002	7.728300e-001	-0.000000e+000	-0.000000e+000	0.000000e+000	0.000000e+000	0.000000e+000	0.000000e+000
1401600000.000	1.858878e-002	7.727957e-001	-0.000000e+000	-0.000000e+000	0.000000e+000	0.000000e+000	0.000000e+000	0.000000e+000
1401700000.000	2.036561e-002	7.727825e-001	-0.000000e+000	-0.000000e+000	0.000000e+000	0.000000e+000	0.000000e+000	0.000000e+000
1401800000.000	2.216652e-002	7.727603e-001	-0.000000e+000	-0.000000e+000	0.000000e+000	0.000000e+000	0.000000e+000	0.000000e+000
1401900000.000	2.393612e-002	7.727318e-001	-0.000000e+000	-0.000000e+000	0.000000e+000	0.000000e+000	0.000000e+000	0.000000e+000
1402000000.000	2.573489e-002	7.726930e-001	-0.000000e+000	-0.000000e+000	0.000000e+000	0.000000e+000	0.000000e+000	0.000000e+000
1402100000.000	2.750838e-002	7.726446e-001	-0.000000e+000	-0.000000e+000	0.000000e+000	0.000000e+000	0.000000e+000	0.000000e+000
1402200000.000	2.931183e-002	7.725511e-001	-0.000000e+000	-0.000000e+000	0.000000e+000	0.000000e+000	0.000000e+000	0.000000e+000
1402300000.000	3.111940e-002	7.724755e-001	-0.000000e+000	-0.000000e+000	0.000000e+000	0.000000e+000	0.000000e+000	0.000000e+000
1402400000.000	3.292653e-002	7.724106e-001	-0.000000e+000	-0.000000e+000	0.000000e+000	0.000000e+000	0.000000e+000	0.000000e+000
1402500000.000	3.473124e-002	7.723153e-001	-0.000000e+000	-0.000000e+000	0.000000e+000	0.000000e+000	0.000000e+000	0.000000e+000
1402600000.000	3.656323e-002	7.722098e-001	-0.000000e+000	-0.000000e+000	0.000000e+000	0.000000e+000	0.000000e+000	0.000000e+000
1402700000.000	3.839116e-002	7.721191e-001	-0.000000e+000	-0.000000e+000	0.000000e+000	0.000000e+000	0.000000e+000	0.000000e+000
1402800000.000	4.018618e-002	7.720159e-001	-0.000000e+000	-0.000000e+000	0.000000e+000	0.000000e+000	0.000000e+000	0.000000e+000
1402900000.000	4.201204e-002	7.719217e-001	-0.000000e+000	-0.000000e+000	0.000000e+000	0.000000e+000	0.000000e+000	0.000000e+000
1403000000.000	4.384803e-002	7.718044e-001	-0.000000e+000	-0.000000e+000	0.000000e+000	0.000000e+000	0.000000e+000	0.000000e+000
1403100000.000	4.567585e-002	7.716989e-001	-0.000000e+000	-0.000000e+000	0.000000e+000	0.000000e+000	0.000000e+000	0.000000e+000
1403200000.000	4.749911e-002	7.715665e-001	-0.000000e+000	-0.000000e+000	0.000000e+000	0.000000e+000	0.000000e+000	0.000000e+000
1403300000.000	4.931497e-002	7.714620e-001	-0.000000e+000	-0.000000e+000	0.000000e+000	0.000000e+000	0.000000e+000	0.000000e+000
1403400000.000	5.110808e-002	7.713696e-001	-0.000000e+000	-0.000000e+000	0.000000e+000	0.000000e+000	0.000000e+000	0.000000e+000
1403500000.000	5.291509e-002	7.712536e-001	-0.000000e+000	-0.000000e+000	0.000000e+000	0.000000e+000	0.000000e+000	0.000000e+000
1403600000.000	5.471686e-002	7.711943e-001	-0.000000e+000	-0.000000e+000	0.000000e+000	0.000000e+000	0.000000e+000	0.000000e+000
1403700000.000	5.653214e-002	7.710655e-001	-0.000000e+000	-0.000000e+000	0.000000e+000	0.000000e+000	0.000000e+000	0.000000e+000
1403800000.000	5.830490e-002	7.709779e-001	-0.000000e+000	-0.000000e+000	0.000000e+000	0.000000e+000	0.000000e+000	0.000000e+000
1403900000.000	6.007699e-002	7.708657e-001	-0.000000e+000	-0.000000e+000	0.000000e+000	0.000000e+000	0.000000e+000	0.000000e+000
1404000000.000	6.185567e-002	7.707457e-001	-0.000000e+000	-0.000000e+000	0.000000e+000	0.000000e+000	0.000000e+000	0.000000e+000
1404100000.000	6.360759e-002	7.706234e-001	-0.000000e+000	-0.000000e+000	0.000000e+000	0.000000e+000	0.000000e+000	0.000000e+000
1404200000.000	6.537778e-002	7.705186e-001	-0.000000e+000	-0.000000e+000	0.000000e+000	0.000000e+000	0.000000e+000	0.000000e+000
1404300000.000	6.712558e-002	7.704315e-001	-0.000000e+000	-0.000000e+000	0.000000e+000	0.000000e+000	0.000000e+000	0.000000e+000
1404400000.000	6.888288e-002	7.703311e-001	0.000000e+000	-0.000000e+000	0.000000e+000	0.000000e+000	0.000000e+000	0.000000e+000
1404500000.000	7.070119e-002	7.702283e-001	0.000000e+000	-0.000000e+000	0.000000e+000	0.000000e+000	0.000000e+000	0.000000e+000
1404600000.000	7.246240e-002	7.701441e-001	0.000000e+000	-0.000000e+000	0.000000e+000	0.000000e+000	0.000000e+000	0.000000e+000
1404700000.000	7.421592e-002	7.700239e-001	0.000000e+000	-0.000000e+000	0.000000e+000	0.000000e+000	0.000000e+000	0.000000e+000
1404800000.000	7.599252e-002	7.699516e-001	0.000000e+000	-0.000000e+000	0.000000e+000	0.000000e+000	0.000000e+000	0.000000e+000
1404900000.000	7.775025e-002	7.698305e-001	0.000000e+000	-0.000000e+000	0.000000e+000	0.000000e+000	0.000000e+000	0.000000e+000
1405000000.000	7.953101e-002	7.697395e-001	0.000000e+000	-0.000000e+000	0.000000e+000	0.000000e+000	0.000000e+000	0.000000e+000
1405100000.000	8.129816e-002	7.696121e-001	0.000000e+000	-0.000000e+000	0.000000e+000	0.000000e+000	0.000000e+000	0.000000e+000
1405200000.000	8.307374e-002	7.694916e-001	0.000000e+000	-0.000000e+000	0.000000e+000	0.000000e+000	0.000000e+000	0.000000e+000
1405300000.000	8.478909e-002	7.693662e-001	0.000000e+000	-0.000000e+000	0.000000e+000	0.000000e+000	0.000000e+000	0.000000e+000
1405400000.000	8.653721e-002	7.692390e-001	0.000000e+000	-0.000000e+000	0.000000e+000	0.000000e+000	0.000000e+000	0.000000e+000
1405500000.000	8.830434e-002	7.690999e-001	0.000000e+000	-0.000000e+000	0.000000e+000	0.000000e+000	0.000000e+000	0.000000e+000
1405600000.000	9.003580e-002	7.689411e-001	0.000000e+000	-0.000000e+000	0.000000e+000	0.000000e+000	0.000000e+000	0.000000e+000
1405700000.000	9.179361e-002	7.687945e-001	0.000000e+000	-0.000000e+000	0.000000e+000	0.000000e+000	0.000000e+000	0.000000e+000
1405800000.000	9.354455e-002	7.686183e-001	0.000000e+000	-0.000000e+000	0.000000e+000	0.000000e+000	0.000000e+000	0.000000e+000
1405900000.000	9.528868e-002	7.684612e-001	0.000000e+000	-0.000000e+000	0.000000e+000	0.000000e+000	0.000000e+000	0.000000e+000
1406000000.000	9.705760e-002	7.682838e-001	0.000000e+000	-0.000000e+000	0.000000e+000	0.000000e+000	0.000000e+000	0.000000e+000
1406100000.000	9.882605e-002	7.680930e-001	0.000000e+000	-0.000000e+000	0.000000e+000	0.000000e+000	0.000000e+000	0.000000e+000
1406200000.000	1.005731e-001	7.679318e-001	0.000000e+000	-0.000000e+000	0.000000e+000	0.000000e+000	0.000000e+000	0.000000e+000
1406300000.000	1.023562e-001	7.677369e-001	0.000000e+000	-0.000000e+000	0.000000e+000	0.000000e+000	0.000000e+000	0.000000e+000
1406400000.000	1.041231e-001	7.675481e-001	0.000000e+000	-0.000000e+000	0.000000e+000	0.000000e+000	0.000000e+000	0.000000e+000
1406500000.000	1.058884e-001	7.673546e-001	0.000000e+000	-0.000000e+000	0.000000e+000	0.000000e+000	0.000000e+000	0.000000e+000
1406600000.000	1.076902e-001	7.671514e-001	0.000000e+000	-0.000000e+000	0.000000e+000	0.000000e+000	0.000000e+000	0.000000e+000
1406700000.000	1.094242e-001	7.669915e-001	0.000000e+000	-0.000000e+000	0.000000e+000	0.000000e+000	0.000000e+000	0.000000e+000
1406800000.000	1.111639e-001	7.667825e-001	0.000000e+000	-0.000000e+000	0.000000e+000	0.000000e+000	0.000000e+000	0.000000e+000
1406900000.000	1.129337e-001	7.665856e-001	0.000000e+000	-0.000000e+000	0.000000e+000	0.000000e+000	0.000000e+000	0.000000e+000
1407000000.000	1.146813e-001	7.663994e-001	0.000000e+000	-0.000000e+000	0.000000e+000	0.000000e+000	0.000000e+000	0.000000e+000
1407100000.000	1.164231e-001	7.661864e-001	0.000000e+000	-0.000000e+000	0.000000e+000	0.000000e+000	0.000000e+000	0.000000e+000
1407200000.000	1.182103e-001	7.659683e-001	0.000000e+000	-0.000000e+000	0.000000e+000	0.000000e+000	0.000000e+000	0.000000e+000
1407300000.000	1.199676e-001	7.657858e-001	0.000000e+000	-0.000000e+000	0.000000e+000	0.000000e+000	0.000000e+000	0.000000e+000
1407400000.000	1.217187e-001	7.655774e-001	0.000000e+000	-0.000000e+000	0.000000e+000	0.000000e+000	0.000000e+000	0.000000e+000
1407500000.000	1.234843e-001	7.653647e-001	0.000000e+000	-0.000000e+000	0.000000e+000	0.000000e+000	0.000000e+000	0.000000e+000
1407600000.000	1.252542e-001	7.651814e-001	0.000000e+000	-0.000000e+000	0.000000e+000	0.000000e+000	0.000000e+000	0.000000e+000
1407700000.000	1.270137e-001	7.649680e-001	0.000000e+000	-0.000000e+000	0.000000e+000	0.000000e+000	0.000000e+000	0.000000e+000
1407800000.000	1.287492e-001	7.647869e-001	0.000000e+000	-0.000000e+000	0.000000e+000	0.000000e+000	0.000000e+000	0.000000e+000
1407900000.000	1.305152e-001	7.645801e-001	0.000000e+000	-0.000000e+000	0.000000e+000	0.000000e+000	0.000000e+000	0.000000e+000
1408000000.000	1.322510e-001	7.643760e-001	0.000000e+000	-0.000000e+000	0.000000e+000	0.000000e+000	0.000000e+000	0.000000e+000
1408100000.000	1.340412e-001	7.641420e-001	0.000000e+000	-0.000000e+000	0.000000e+000	0.000000e+000	0.000000e+000	0.000000e+000
1408200000.000	1.357889e-001	7.639203e-001	0.000000e+000	-0.000000e+000	0.000000e+000	0.000000e+000	0.000000e+000	0.000000e+000
1408300000.000	1.375371e-001	7.636735e-001	0.000000e+000	-0.000000e+000	0.000000e+000	0.000000e+000	0.000000e+000	0.000000e+000
1408400000.000	1.392946e-001	7.634558e-001	0.000000e+000	-0.000000e+000	0.000000e+000	0.000000e+000	0.000000e+000	0.000000e+000
1408500000.000	1.410616e-001	7.632209e-001	0.000000e+000	-0.000000e+000	0.000000e+000	0.000000e+000	0.000000e+000	0.000000e+000
1408600000.000	1.428134e-001	7.630002e-001	0.000000e+000	-0.000000e+000	0.000000e+000	0.000000e+000	0.000000e+000	0.000000e+000
1408700000.000	1.445705e-001	7.627723e-001	0.000000e+000	-0.000000e+000	0.000000e+000	0.000000e+000	0.000000e+000	0.000000e+000
1408800000.000	1.463317e-001	7.625745e-001	0.000000e+000	-0.000000e+000	0.000000e+000	0.000000e+000	0.000000e+000	0.000000e+000
1408900000.000	1.480877e-001	7.623517e-001	0.000000e+000	-0.000000e+000	0.000000e+000	0.000000e+000	0.000000e+000	0.000000e+000
1409000000.000	1.498681e-001	7.621205e-001	0.000000e+000	-0.000000e+000	0.000000e+000	0.000000e+000	0.000000e+000	0.000000e+000
1409100000.000	1.516505e-001	7.618963e-001	0.000000e+000	-0.000000e+000	0.000000e+000	0.000000e+000	0.000000e+000	0.000000e+000
1409200000.000	1.534297e-001	7.616845e-001	0.000000e+000	-0.000000e+000	0.000000e+000	0.000000e+000	0.000000e+000	0.000000e+000
1409300000.000	1.552105e-001	7.615037e-001	0.000000e+000	-0.000000e+000	0.000000e+000	0.000000e+000	0.000000e+000	0.000000e+000
1409400000.000	1.570299e-001	7.612450e-001	0.000000e+000	-0.000000e+000	0.000000e+000	0.000000e+000	0.000000e+000	0.000000e+000
1409500000.000	1.588408e-001	7.610488e-001	0.000000e+000	-0.000000e+000	0.000000e+000	0.000000e+000	0.000000e+000	0.000000e+000
1409600000.000	1.606645e-001	7.608504e-001	0.000000e+000	-0.000000e+000	0.000000e+000	0.000000e+000	0.000000e+000	0.000000e+000
1409700000.000	1.625001e-001	7.606340e-001	0.000000e+000	-0.000000e+000	0.000000e+000	0.000000e+000	0.000000e+000	0.000000e+000
1409800000.000	1.643548e-001	7.604273e-001	0.000000e+000	-0.000000e+000	0.000000e+000	0.000000e+000	0.000000e+000	0.000000e+000
1409900000.000	1.662162e-001	7.602043e-001	0.000000e+000	-0.000000e+000	0.000000e+000	0.000000e+000	0.000000e+000	0.000000e+000
1410000000.000	1.680649e-001	7.599861e-001	0.000000e+000	-0.000000e+000	0.000000e+000	0.000000e+000	0.000000e+000	0.000000e+000
1410100000.000	1.698059e-001	7.597273e-001	0.000000e+000	-0.000000e+000	0.000000e+000	0.000000e+000	0.000000e+000	0.000000e+000
1410200000.000	1.717008e-001	7.594329e-001	0.000000e+000	-0.000000e+000	0.000000e+000	0.000000e+000	0.000000e+000	0.000000e+000
1410300000.000	1.736426e-001	7.591934e-001	0.000000e+000	-0.000000e+000	0.000000e+000	0.000000e+000	0.000000e+000	0.000000e+000
1410400000.000	1.755896e-001	7.589228e-001	0.000000e+000	-0.000000e+000	0.000000e+000	0.000000e+000	0.000000e+000	0.000000e+000
1410500000.000	1.775291e-001	7.586819e-001	0.000000e+000	-0.000000e+000	0.000000e+000	0.000000e+000	0.000000e+000	0.000000e+000
1410600000.000	1.795163e-001	7.583909e-001	0.000000e+000	-0.000000e+000	0.000000e+000	0.000000e+000	0.000000e+000	0.000000e+000
1410700000.000	1.814943e-001	7.580557e-001	0.000000e+000	-0.000000e+000	0.000000e+000	0.000000e+000	0.000000e+000	0.000000e+000
1410800000.000	1.835207e-001	7.576989e-001	0.000000e+000	-0.000000e+000	0.000000e+000	0.000000e+000	0.000000e+000	0.000000e+000
1410900000.000	1.855944e-001	7.572965e-001	0.000000e+000	-0.000000e+000	0.000000e+000	0.000000e+000	0.000000e+000	0.000000e+000
1411000000.000	1.876861e-001	7.568592e-001	0.000000e+000	-0.000000e+000	0.000000e+000	0.000000e+000	0.000000e+000	0.000000e+000
1411100000.000	1.897980e-001	7.564030e-001	0.000000e+000	-0.000000e+000	0.000000e+000	0.000000e+000	0.000000e+000	0.000000e+000
1411200000.000	1.919583e-001	7.558996e-001	0.000000e+000	-0.000000e+000	0.000000e+000	0.000000e+000	0.000000e+000	0.000000e+000
1411300000.000	1.941004e-001	7.553767e-001	0.000000e+000	-0.000000e+000	0.000000e+000	0.000000e+000	0.000000e+000	0.000000e+000
1411400000.000	1.962206e-001	7.547976e-001	0.000000e+000	-0.000000e+000	0.000000e+000	0.000000e+000	0.000000e+000	0.000000e+000
1411500000.000	1.983423e-001	7.541551e-001	0.000000e+000	-0.000000e+000	0.000000e+000	0.000000e+000	0.000000e+000	0.000000e+000
1411600000.000	2.004188e-001	7.534880e-001	0.000000e+000	-0.000000e+000	0.000000e+000	0.000000e+000	0.000000e+000	0.000000e+000
1411700000.000	2.024559e-001	7.527552e-001	0.000000e+000	-0.000000e+000	0.000000e+000	0.000000e+000	0.000000e+000	0.000000e+000
1411800000.000	2.044376e-001	7.520071e-001	0.000000e+000	-0.000000e+000	0.000000e+000	0.000000e+000	0.000000e+000	0.000000e+000
1411900000.000	2.063753e-001	7.512137e-001	0.000000e+000	-0.000000e+000	0.000000e+000	0.000000e+000	0.000000e+000	0.000000e+000
1412000000.000	2.082427e-001	7.504495e-001	0.000000e+000	-0.000000e+000	0.000000e+000	0.000000e+000	0.000000e+000	0.000000e+000
1412100000.000	2.100804e-001	7.496795e-001	0.000000e+000	-0.000000e+000	0.000000e+000	0.000000e+000	0.000000e+000	0.000000e+000
1412200000.000	2.118485e-001	7.489262e-001	0.000000e+000	-0.000000e+000	0.000000e+000	0.000000e+000	0.000000e+000	0.000000e+000
1412300000.000	2.135483e-001	7.482242e-001	0.000000e+000	-0.000000e+000	0.000000e+000	0.000000e+000	0.000000e+000	0.000000e+000
1412400000.000	2.152530e-001	7.475100e-001	0.000000e+000	-0.000000e+000	0.000000e+000	0.000000e+000	0.000000e+000	0.000000e+000
1412500000.000	2.169009e-001	7.468499e-001	0.000000e+000	-0.000000e+000	0.000000e+000	0.000000e+000	0.000000e+000	0.000000e+000
1412600000.000	2.184858e-001	7.462245e-001	0.000000e+000	-0.000000e+000	0.000000e+000	0.000000e+000	0.000000e+000	0.000000e+000
1412700000.000	2.200726e-001	7.456690e-001	0.000000e+000	-0.000000e+000	0.000000e+000	0.000000e+000	0.000000e+000	0.000000e+000
1412800000.000	2.216627e-001	7.451909e-001	0.000000e+000	-0.000000e+000	0.000000e+000	0.000000e+000	0.000000e+000	0.000000e+000
1412900000.000	2.232918e-001	7.447686e-001	0.000000e+000	-0.000000e+000	0.000000e+000	0.000000e+000	0.000000e+000	0.000000e+000
1413000000.000	2.249675e-001	7.444008e-001	0.000000e+000	-0.000000e+000	0.000000e+000	0.000000e+000	0.000000e+000	0.000000e+000
1413100000.000	2.267371e-001	7.440619e-001	0.000000e+000	-0.000000e+000	0.000000e+000	0.000000e+000	0.000000e+000	0.000000e+000
1413200000.000	2.285375e-001	7.437251e-001	0.000000e+000	-0.000000e+000	0.000000e+000	0.000000e+000	0.000000e+000	0.000000e+000
1413300000.000	2.304763e-001	7.433645e-001	0.000000e+000	-0.000000e+000	0.000000e+000	0.000000e+000	0.000000e+000	0.000000e+000
1413400000.000	2.324758e-001	7.429535e-001	0.000000e+000	-0.000000e+000	0.000000e+000	0.000000e+000	0.000000e+000	0.000000e+000
1413500000.000	2.344740e-001	7.424928e-001	0.000000e+000	-0.000000e+000	0.000000e+000	0.000000e+000	0.000000e+000	0.000000e+000
1413600000.000	2.365132e-001	7.419314e-001	0.000000e+000	-0.000000e+000	0.000000e+000	0.000000e+000	0.000000e+000	0.000000e+000
1413700000.000	2.385333e-001	7.413203e-001	0.000000e+000	-0.000000e+000	0.000000e+000	0.000000e+000	0.000000e+000	0.000000e+000
1413800000.000	2.405414e-001	7.406334e-001	0.000000e+000	-0.000000e+000	0.000000e+000	0.000000e+000	0.000000e+000	0.000000e+000
1413900000.000	2.424989e-001	7.399075e-001	0.000000e+000	-0.000000e+000	0.000000e+000	0.000000e+000	0.000000e+000	0.000000e+000
1414000000.000	2.444223e-001	7.391423e-001	0.000000e+000	-0.000000e+000	0.000000e+000	0.000000e+000	0.000000e+000	0.000000e+000
1414100000.000	2.462428e-001	7.383811e-001	0.000000e+000	-0.000000e+000	0.000000e+000	0.000000e+000	0.000000e+000	0.000000e+000
1414200000.000	2.480494e-001	7.376261e-001	0.000000e+000	-0.000000e+000	0.000000e+000	0.000000e+000	0.000000e+000	0.000000e+000
1414300000.000	2.498258e-001	7.369285e-001	0.000000e+000	-0.000000e+000	0.000000e+000	0.000000e+000	0.000000e+000	0.000000e+000
1414400000.000	2.515828e-001	7.362731e-001	0.000000e+000	-0.000000e+000	0.000000e+000	0.000000e+000	0.000000e+000	0.000000e+000
1414500000.000	2.533544e-001	7.356545e-001	0.000000e+000	-0.000000e+000	0.000000e+000	0.000000e+000	0.000000e+000	0.000000e+000
1414600000.000	2.551671e-001	7.350194e-001	0.000000e+000	-0.000000e+000	0.000000e+000	0.000000e+000	0.000000e+000	0.000000e+000
1414700000.000	2.569716e-001	7.344114e-001	0.000000e+000	-0.000000e+000	0.000000e+000	0.000000e+000	0.000000e+000	0.000000e+000
1414800000.000	2.588457e-001	7.337429e-001	0.000000e+000	-0.000000e+000	0.000000e+000	0.000000e+000	0.000000e+000	0.000000e+000
1414900000.000	2.607445e-001	7.330545e-001	0.000000e+000	-0.000000e+000	0.000000e+000	0.000000e+000	0.000000e+000	0.000000e+000
1415000000.000	2.626247e-001	7.323188e-001	0.000000e+000	-0.000000e+000	0.000000e+000	0.000000e+000	0.000000e+000	0.000000e+000
1415100000.000	2.645005e-001	7.315097e-001	0.000000e+000	-0.000000e+000	0.000000e+000	0.000000e+000	0.000000e+000	0.000000e+000
1415200000.000	2.662870e-001	7.306415e-001	0.000000e+000	-0.000000e+000	0.000000e+000	0.000000e+000	0.000000e+000	0.000000e+000
1415300000.000	2.679833e-001	7.297349e-001	0.000000e+000	-0.000000e+000	0.000000e+000	0.000000e+000	0.000000e+000	0.000000e+000
