!Keysight Technologies,E5063A,MY54503975,A.05.08
!Date: Fri Mar 07 04:26:40 2025
!Data & Calibration Information:
!Freq	S11:NONE(--)	S21:RESPT(ON)	S12:NONE(--)	S22:NONE(--)
# Hz S RI R 50
1400000000.000	-1.914104e-002	7.721816e-001	-0.000000e+000	-0.000000e+000	0.000000e+000	0.000000e+000	0.000000e+000	0.000000e+000
1400100000.000	-1.742217e-002	7.725041e-001	-0.000000e+000	-0.000000e+000	0.000000e+000	0.000000e+000	0.000000e+000	0.000000e+000
1400200000.000	-1.573394e-002	7.728045e-001	-0.000000e+000	-0.000000e+000	0.000000e+000	0.000000e+000	0.000000e+000	0.000000e+000
1400300000.000	-1.401419e-002	7.731206e-001	-0.000000e+000	-0.000000e+000	0.000000e+000	0.000000e+000	0.000000e+000	0.000000e+000
1400400000.000	-1.232069e-002	7.734451e-001	-0.000000e+000	-0.000000e+000	0.000000e+000	0.000000e+000	0.000000e+000	0.000000e+000
1400500000.000	-1.061950e-002	7.737323e-001	-0.000000e+000	-0.000000e+000	0.000000e+000	0.000000e+000	0.000000e+000	0.000000e+000
1400600000.000	-8.910363e-003	7.740942e-001	-0.000000e+000	-0.000000e+000	0.000000e+000	0.000000e+000	0.000000e+000	0.000000e+000
1400700000.000	-7.162982e-003	7.744443e-001	-0.000000e+000	-0.000000e+000	0.000000e+000	0.000000e+000	0.000000e+000	0.000000e+000
1400800000.000	-5.359395e-003	7.747388e-001	-0.000000e+000	-0.000000e+000	0.000000e+000	0.000000e+000	0.000000e+000	0.000000e+000
1400900000.000	-3.498082e-003	7.749482e-001	-0.000000e+000	-0.000000e+000	0.000000e+000	0.000000e+000	0.000000e+000	0.000000e+000
1401000000.000	-1.644587e-003	7.750497e-001	-0.000000e+000	-0.000000e+000	0.000000e+000	0.000000e+000	0.000000e+000	0.000000e+000
1401100000.000	1.870087e-004	7.750011e-001	-0.000000e+000	-0.000000e+000	0.000000e+000	0.000000e+000	0.000000e+000	0.000000e+000
1401200000.000	1.931050e-003	7.747673e-001	-0.000000e+000	-0.000000e+000	0.000000e+000	0.000000e+000	0.000000e+000	0.000000e+000
1401300000.000	3.575704e-003	7.743755e-001	-0.000000e+000	-0.000000e+000	0.000000e+000	0.000000e+000	0.000000e+000	0.000000e+000
1401400000.000	5.126493e-003	7.738595e-001	-0.000000e+000	-0.000000e+000	0.000000e+000	0.000000e+000	0.000000e+000	0.000000e+000
1401500000.000	6.609125e-003	7.731952e-001	-0.000000e+000	-0.000000e+000	0.000000e+000	0.000000e+000	0.000000e+000	0.000000e+000
1401600000.000	8.096280e-003	7.724317e-001	-0.000000e+000	-0.000000e+000	0.000000e+000	0.000000e+000	0.000000e+000	0.000000e+000
1401700000.000	9.766090e-003	7.715383e-001	-0.000000e+000	-0.000000e+000	0.000000e+000	0.000000e+000	0.000000e+000	0.000000e+000
1401800000.000	1.166961e-002	7.705483e-001	-0.000000e+000	-0.000000e+000	0.000000e+000	0.000000e+000	0.000000e+000	0.000000e+000
1401900000.000	1.385034e-002	7.694733e-001	-0.000000e+000	-0.000000e+000	0.000000e+000	0.000000e+000	0.000000e+000	0.000000e+000
1402000000.000	1.631520e-002	7.683288e-001	-0.000000e+000	-0.000000e+000	0.000000e+000	0.000000e+000	0.000000e+000	0.000000e+000
1402100000.000	1.895715e-002	7.671903e-001	-0.000000e+000	-0.000000e+000	0.000000e+000	0.000000e+000	0.000000e+000	0.000000e+000
1402200000.000	2.171354e-002	7.661513e-001	-0.000000e+000	-0.000000e+000	0.000000e+000	0.000000e+000	0.000000e+000	0.000000e+000
1402300000.000	2.446509e-002	7.653601e-001	-0.000000e+000	-0.000000e+000	0.000000e+000	0.000000e+000	0.000000e+000	0.000000e+000
1402400000.000	2.722372e-002	7.648701e-001	-0.000000e+000	-0.000000e+000	0.000000e+000	0.000000e+000	0.000000e+000	0.000000e+000
1402500000.000	2.987114e-002	7.647168e-001	-0.000000e+000	-0.000000e+000	0.000000e+000	0.000000e+000	0.000000e+000	0.000000e+000
1402600000.000	3.240390e-002	7.648700e-001	-0.000000e+000	-0.000000e+000	0.000000e+000	0.000000e+000	0.000000e+000	0.000000e+000
1402700000.000	3.471146e-002	7.653547e-001	-0.000000e+000	-0.000000e+000	0.000000e+000	0.000000e+000	0.000000e+000	0.000000e+000
1402800000.000	3.680476e-002	7.660100e-001	-0.000000e+000	-0.000000e+000	0.000000e+000	0.000000e+000	0.000000e+000	0.000000e+000
1402900000.000	3.874223e-002	7.667542e-001	-0.000000e+000	-0.000000e+000	0.000000e+000	0.000000e+000	0.000000e+000	0.000000e+000
1403000000.000	4.051606e-002	7.674794e-001	-0.000000e+000	-0.000000e+000	0.000000e+000	0.000000e+000	0.000000e+000	0.000000e+000
1403100000.000	4.216095e-002	7.681022e-001	-0.000000e+000	-0.000000e+000	0.000000e+000	0.000000e+000	0.000000e+000	0.000000e+000
1403200000.000	4.370252e-002	7.685177e-001	-0.000000e+000	-0.000000e+000	0.000000e+000	0.000000e+000	0.000000e+000	0.000000e+000
1403300000.000	4.523826e-002	7.687082e-001	-0.000000e+000	-0.000000e+000	0.000000e+000	0.000000e+000	0.000000e+000	0.000000e+000
1403400000.000	4.681089e-002	7.686192e-001	-0.000000e+000	-0.000000e+000	0.000000e+000	0.000000e+000	0.000000e+000	0.000000e+000
1403500000.000	4.839135e-002	7.683268e-001	-0.000000e+000	-0.000000e+000	0.000000e+000	0.000000e+000	0.000000e+000	0.000000e+000
1403600000.000	4.997997e-002	7.679660e-001	-0.000000e+000	-0.000000e+000	0.000000e+000	0.000000e+000	0.000000e+000	0.000000e+000
1403700000.000	5.148064e-002	7.676175e-001	-0.000000e+000	-0.000000e+000	0.000000e+000	0.000000e+000	0.000000e+000	0.000000e+000
1403800000.000	5.284054e-002	7.673522e-001	-0.000000e+000	-0.000000e+000	0.000000e+000	0.000000e+000	0.000000e+000	0.000000e+000
1403900000.000	5.407381e-002	7.672120e-001	-0.000000e+000	-0.000000e+000	0.000000e+000	0.000000e+000	0.000000e+000	0.000000e+000
1404000000.000	5.527659e-002	7.671763e-001	-0.000000e+000	-0.000000e+000	0.000000e+000	0.000000e+000	0.000000e+000	0.000000e+000
1404100000.000	5.655418e-002	7.672479e-001	-0.000000e+000	-0.000000e+000	0.000000e+000	0.000000e+000	0.000000e+000	0.000000e+000
1404200000.000	5.799894e-002	7.673886e-001	-0.000000e+000	-0.000000e+000	0.000000e+000	0.000000e+000	0.000000e+000	0.000000e+000
1404300000.000	5.968753e-002	7.674969e-001	-0.000000e+000	-0.000000e+000	0.000000e+000	0.000000e+000	0.000000e+000	0.000000e+000
1404400000.000	6.157708e-002	7.675419e-001	0.000000e+000	-0.000000e+000	0.000000e+000	0.000000e+000	0.000000e+000	0.000000e+000
1404500000.000	6.361985e-002	7.675074e-001	0.000000e+000	-0.000000e+000	0.000000e+000	0.000000e+000	0.000000e+000	0.000000e+000
1404600000.000	6.567383e-002	7.673933e-001	0.000000e+000	-0.000000e+000	0.000000e+000	0.000000e+000	0.000000e+000	0.000000e+000
1404700000.000	6.760567e-002	7.671836e-001	0.000000e+000	-0.000000e+000	0.000000e+000	0.000000e+000	0.000000e+000	0.000000e+000
1404800000.000	6.950078e-002	7.669137e-001	0.000000e+000	-0.000000e+000	0.000000e+000	0.000000e+000	0.000000e+000	0.000000e+000
1404900000.000	7.120955e-002	7.667268e-001	0.000000e+000	-0.000000e+000	0.000000e+000	0.000000e+000	0.000000e+000	0.000000e+000
1405000000.000	7.288451e-002	7.665274e-001	0.000000e+000	-0.000000e+000	0.000000e+000	0.000000e+000	0.000000e+000	0.000000e+000
1405100000.000	7.451115e-002	7.663927e-001	0.000000e+000	-0.000000e+000	0.000000e+000	0.000000e+000	0.000000e+000	0.000000e+000
1405200000.000	7.612714e-002	7.662594e-001	0.000000e+000	-0.000000e+000	0.000000e+000	0.000000e+000	0.000000e+000	0.000000e+000
1405300000.000	7.774284e-002	7.661644e-001	0.000000e+000	-0.000000e+000	0.000000e+000	0.000000e+000	0.000000e+000	0.000000e+000
1405400000.000	7.938128e-002	7.660922e-001	0.000000e+000	-0.000000e+000	0.000000e+000	0.000000e+000	0.000000e+000	0.000000e+000
1405500000.000	8.108510e-002	7.659974e-001	0.000000e+000	-0.000000e+000	0.000000e+000	0.000000e+000	0.000000e+000	0.000000e+000
1405600000.000	8.281198e-002	7.658733e-001	0.000000e+000	-0.000000e+000	0.000000e+000	0.000000e+000	0.000000e+000	0.000000e+000
1405700000.000	8.455529e-002	7.657112e-001	0.000000e+000	-0.000000e+000	0.000000e+000	0.000000e+000	0.000000e+000	0.000000e+000
1405800000.000	8.635113e-002	7.655075e-001	0.000000e+000	-0.000000e+000	0.000000e+000	0.000000e+000	0.000000e+000	0.000000e+000
1405900000.000	8.813869e-002	7.652551e-001	0.000000e+000	-0.000000e+000	0.000000e+000	0.000000e+000	0.000000e+000	0.000000e+000
1406000000.000	8.993034e-002	7.650201e-001	0.000000e+000	-0.000000e+000	0.000000e+000	0.000000e+000	0.000000e+000	0.000000e+000
1406100000.000	9.172156e-002	7.647754e-001	0.000000e+000	-0.000000e+000	0.000000e+000	0.000000e+000	0.000000e+000	0.000000e+000
1406200000.000	9.352680e-002	7.645338e-001	0.000000e+000	-0.000000e+000	0.000000e+000	0.000000e+000	0.000000e+000	0.000000e+000
1406300000.000	9.532496e-002	7.642920e-001	0.000000e+000	-0.000000e+000	0.000000e+000	0.000000e+000	0.000000e+000	0.000000e+000
1406400000.000	9.710825e-002	7.640554e-001	0.000000e+000	-0.000000e+000	0.000000e+000	0.000000e+000	0.000000e+000	0.000000e+000
1406500000.000	9.885225e-002	7.638438e-001	0.000000e+000	-0.000000e+000	0.000000e+000	0.000000e+000	0.000000e+000	0.000000e+000
1406600000.000	1.005998e-001	7.636577e-001	0.000000e+000	-0.000000e+000	0.000000e+000	0.000000e+000	0.000000e+000	0.000000e+000
1406700000.000	1.023312e-001	7.634829e-001	0.000000e+000	-0.000000e+000	0.000000e+000	0.000000e+000	0.000000e+000	0.000000e+000
1406800000.000	1.040378e-001	7.633266e-001	0.000000e+000	-0.000000e+000	0.000000e+000	0.000000e+000	0.000000e+000	0.000000e+000
1406900000.000	1.057515e-001	7.631884e-001	0.000000e+000	-0.000000e+000	0.000000e+000	0.000000e+000	0.000000e+000	0.000000e+000
1407000000.000	1.074967e-001	7.630455e-001	0.000000e+000	-0.000000e+000	0.000000e+000	0.000000e+000	0.000000e+000	0.000000e+000
1407100000.000	1.092767e-001	7.628456e-001	0.000000e+000	-0.000000e+000	0.000000e+000	0.000000e+000	0.000000e+000	0.000000e+000
1407200000.000	1.110366e-001	7.626764e-001	0.000000e+000	-0.000000e+000	0.000000e+000	0.000000e+000	0.000000e+000	0.000000e+000
1407300000.000	1.128100e-001	7.624980e-001	0.000000e+000	-0.000000e+000	0.000000e+000	0.000000e+000	0.000000e+000	0.000000e+000
1407400000.000	1.145712e-001	7.623361e-001	0.000000e+000	-0.000000e+000	0.000000e+000	0.000000e+000	0.000000e+000	0.000000e+000
1407500000.000	1.163445e-001	7.621846e-001	0.000000e+000	-0.000000e+000	0.000000e+000	0.000000e+000	0.000000e+000	0.000000e+000
1407600000.000	1.180946e-001	7.619764e-001	0.000000e+000	-0.000000e+000	0.000000e+000	0.000000e+000	0.000000e+000	0.000000e+000
1407700000.000	1.198739e-001	7.617598e-001	0.000000e+000	-0.000000e+000	0.000000e+000	0.000000e+000	0.000000e+000	0.000000e+000
1407800000.000	1.216406e-001	7.615425e-001	0.000000e+000	-0.000000e+000	0.000000e+000	0.000000e+000	0.000000e+000	0.000000e+000
1407900000.000	1.234284e-001	7.613612e-001	0.000000e+000	-0.000000e+000	0.000000e+000	0.000000e+000	0.000000e+000	0.000000e+000
1408000000.000	1.252151e-001	7.611337e-001	0.000000e+000	-0.000000e+000	0.000000e+000	0.000000e+000	0.000000e+000	0.000000e+000
1408100000.000	1.270199e-001	7.609000e-001	0.000000e+000	-0.000000e+000	0.000000e+000	0.000000e+000	0.000000e+000	0.000000e+000
1408200000.000	1.288318e-001	7.606923e-001	0.000000e+000	-0.000000e+000	0.000000e+000	0.000000e+000	0.000000e+000	0.000000e+000
1408300000.000	1.305922e-001	7.604632e-001	0.000000e+000	-0.000000e+000	0.000000e+000	0.000000e+000	0.000000e+000	0.000000e+000
1408400000.000	1.324052e-001	7.602311e-001	0.000000e+000	-0.000000e+000	0.000000e+000	0.000000e+000	0.000000e+000	0.000000e+000
1408500000.000	1.342047e-001	7.600056e-001	0.000000e+000	-0.000000e+000	0.000000e+000	0.000000e+000	0.000000e+000	0.000000e+000
1408600000.000	1.360226e-001	7.597397e-001	0.000000e+000	-0.000000e+000	0.000000e+000	0.000000e+000	0.000000e+000	0.000000e+000
1408700000.000	1.378433e-001	7.594807e-001	0.000000e+000	-0.000000e+000	0.000000e+000	0.000000e+000	0.000000e+000	0.000000e+000
1408800000.000	1.396257e-001	7.592320e-001	0.000000e+000	-0.000000e+000	0.000000e+000	0.000000e+000	0.000000e+000	0.000000e+000
1408900000.000	1.414419e-001	7.589491e-001	0.000000e+000	-0.000000e+000	0.000000e+000	0.000000e+000	0.000000e+000	0.000000e+000
1409000000.000	1.432507e-001	7.586554e-001	0.000000e+000	-0.000000e+000	0.000000e+000	0.000000e+000	0.000000e+000	0.000000e+000
1409100000.000	1.450523e-001	7.583778e-001	0.000000e+000	-0.000000e+000	0.000000e+000	0.000000e+000	0.000000e+000	0.000000e+000
1409200000.000	1.468538e-001	7.581062e-001	0.000000e+000	-0.000000e+000	0.000000e+000	0.000000e+000	0.000000e+000	0.000000e+000
1409300000.000	1.486475e-001	7.577994e-001	0.000000e+000	-0.000000e+000	0.000000e+000	0.000000e+000	0.000000e+000	0.000000e+000
1409400000.000	1.504765e-001	7.574978e-001	0.000000e+000	-0.000000e+000	0.000000e+000	0.000000e+000	0.000000e+000	0.000000e+000
1409500000.000	1.522660e-001	7.571869e-001	0.000000e+000	-0.000000e+000	0.000000e+000	0.000000e+000	0.000000e+000	0.000000e+000
1409600000.000	1.540735e-001	7.568772e-001	0.000000e+000	-0.000000e+000	0.000000e+000	0.000000e+000	0.000000e+000	0.000000e+000
1409700000.000	1.558675e-001	7.565676e-001	0.000000e+000	-0.000000e+000	0.000000e+000	0.000000e+000	0.000000e+000	0.000000e+000
1409800000.000	1.576622e-001	7.562337e-001	0.000000e+000	-0.000000e+000	0.000000e+000	0.000000e+000	0.000000e+000	0.000000e+000
1409900000.000	1.594716e-001	7.559262e-001	0.000000e+000	-0.000000e+000	0.000000e+000	0.000000e+000	0.000000e+000	0.000000e+000
1410000000.000	1.612661e-001	7.555884e-001	0.000000e+000	-0.000000e+000	0.000000e+000	0.000000e+000	0.000000e+000	0.000000e+000
1410100000.000	1.630783e-001	7.552364e-001	0.000000e+000	-0.000000e+000	0.000000e+000	0.000000e+000	0.000000e+000	0.000000e+000
1410200000.000	1.648843e-001	7.548943e-001	0.000000e+000	-0.000000e+000	0.000000e+000	0.000000e+000	0.000000e+000	0.000000e+000
1410300000.000	1.666887e-001	7.545359e-001	0.000000e+000	-0.000000e+000	0.000000e+000	0.000000e+000	0.000000e+000	0.000000e+000
1410400000.000	1.684912e-001	7.541780e-001	0.000000e+000	-0.000000e+000	0.000000e+000	0.000000e+000	0.000000e+000	0.000000e+000
1410500000.000	1.702946e-001	7.538165e-001	0.000000e+000	-0.000000e+000	0.000000e+000	0.000000e+000	0.000000e+000	0.000000e+000
1410600000.000	1.720863e-001	7.534591e-001	0.000000e+000	-0.000000e+000	0.000000e+000	0.000000e+000	0.000000e+000	0.000000e+000
1410700000.000	1.738884e-001	7.531158e-001	0.000000e+000	-0.000000e+000	0.000000e+000	0.000000e+000	0.000000e+000	0.000000e+000
1410800000.000	1.756718e-001	7.527307e-001	0.000000e+000	-0.000000e+000	0.000000e+000	0.000000e+000	0.000000e+000	0.000000e+000
1410900000.000	1.774595e-001	7.523473e-001	0.000000e+000	-0.000000e+000	0.000000e+000	0.000000e+000	0.000000e+000	0.000000e+000
1411000000.000	1.792518e-001	7.520024e-001	0.000000e+000	-0.000000e+000	0.000000e+000	0.000000e+000	0.000000e+000	0.000000e+000
1411100000.000	1.810391e-001	7.516184e-001	0.000000e+000	-0.000000e+000	0.000000e+000	0.000000e+000	0.000000e+000	0.000000e+000
1411200000.000	1.828269e-001	7.512386e-001	0.000000e+000	-0.000000e+000	0.000000e+000	0.000000e+000	0.000000e+000	0.000000e+000
1411300000.000	1.846482e-001	7.508917e-001	0.000000e+000	-0.000000e+000	0.000000e+000	0.000000e+000	0.000000e+000	0.000000e+000
1411400000.000	1.864534e-001	7.505019e-001	0.000000e+000	-0.000000e+000	0.000000e+000	0.000000e+000	0.000000e+000	0.000000e+000
1411500000.000	1.882828e-001	7.500936e-001	0.000000e+000	-0.000000e+000	0.000000e+000	0.000000e+000	0.000000e+000	0.000000e+000
1411600000.000	1.900635e-001	7.497079e-001	0.000000e+000	-0.000000e+000	0.000000e+000	0.000000e+000	0.000000e+000	0.000000e+000
1411700000.000	1.918396e-001	7.493171e-001	0.000000e+000	-0.000000e+000	0.000000e+000	0.000000e+000	0.000000e+000	0.000000e+000
1411800000.000	1.936778e-001	7.488854e-001	0.000000e+000	-0.000000e+000	0.000000e+000	0.000000e+000	0.000000e+000	0.000000e+000
1411900000.000	1.954450e-001	7.484805e-001	0.000000e+000	-0.000000e+000	0.000000e+000	0.000000e+000	0.000000e+000	0.000000e+000
1412000000.000	1.972500e-001	7.480625e-001	0.000000e+000	-0.000000e+000	0.000000e+000	0.000000e+000	0.000000e+000	0.000000e+000
1412100000.000	1.990435e-001	7.476496e-001	0.000000e+000	-0.000000e+000	0.000000e+000	0.000000e+000	0.000000e+000	0.000000e+000
1412200000.000	2.008165e-001	7.472274e-001	0.000000e+000	-0.000000e+000	0.000000e+000	0.000000e+000	0.000000e+000	0.000000e+000
1412300000.000	2.026067e-001	7.468026e-001	0.000000e+000	-0.000000e+000	0.000000e+000	0.000000e+000	0.000000e+000	0.000000e+000
1412400000.000	2.043816e-001	7.463730e-001	0.000000e+000	-0.000000e+000	0.000000e+000	0.000000e+000	0.000000e+000	0.000000e+000
1412500000.000	2.061739e-001	7.459294e-001	0.000000e+000	-0.000000e+000	0.000000e+000	0.000000e+000	0.000000e+000	0.000000e+000
1412600000.000	2.079740e-001	7.454448e-001	0.000000e+000	-0.000000e+000	0.000000e+000	0.000000e+000	0.000000e+000	0.000000e+000
1412700000.000	2.097456e-001	7.450201e-001	0.000000e+000	-0.000000e+000	0.000000e+000	0.000000e+000	0.000000e+000	0.000000e+000
1412800000.000	2.115230e-001	7.445492e-001	0.000000e+000	-0.000000e+000	0.000000e+000	0.000000e+000	0.000000e+000	0.000000e+000
1412900000.000	2.132998e-001	7.440984e-001	0.000000e+000	-0.000000e+000	0.000000e+000	0.000000e+000	0.000000e+000	0.000000e+000
1413000000.000	2.151049e-001	7.436402e-001	0.000000e+000	-0.000000e+000	0.000000e+000	0.000000e+000	0.000000e+000	0.000000e+000
1413100000.000	2.168819e-001	7.431611e-001	0.000000e+000	-0.000000e+000	0.000000e+000	0.000000e+000	0.000000e+000	0.000000e+000
1413200000.000	2.186603e-001	7.426850e-001	0.000000e+000	-0.000000e+000	0.000000e+000	0.000000e+000	0.000000e+000	0.000000e+000
1413300000.000	2.204541e-001	7.422381e-001	0.000000e+000	-0.000000e+000	0.000000e+000	0.000000e+000	0.000000e+000	0.000000e+000
1413400000.000	2.222166e-001	7.417540e-001	0.000000e+000	-0.000000e+000	0.000000e+000	0.000000e+000	0.000000e+000	0.000000e+000
1413500000.000	2.240249e-001	7.412725e-001	0.000000e+000	-0.000000e+000	0.000000e+000	0.000000e+000	0.000000e+000	0.000000e+000
1413600000.000	2.258020e-001	7.407671e-001	0.000000e+000	-0.000000e+000	0.000000e+000	0.000000e+000	0.000000e+000	0.000000e+000
1413700000.000	2.275959e-001	7.402628e-001	0.000000e+000	-0.000000e+000	0.000000e+000	0.000000e+000	0.000000e+000	0.000000e+000
1413800000.000	2.293916e-001	7.397556e-001	0.000000e+000	-0.000000e+000	0.000000e+000	0.000000e+000	0.000000e+000	0.000000e+000
1413900000.000	2.311692e-001	7.392645e-001	0.000000e+000	-0.000000e+000	0.000000e+000	0.000000e+000	0.000000e+000	0.000000e+000
1414000000.000	2.329754e-001	7.387395e-001	0.000000e+000	-0.000000e+000	0.000000e+000	0.000000e+000	0.000000e+000	0.000000e+000
1414100000.000	2.347372e-001	7.382153e-001	0.000000e+000	-0.000000e+000	0.000000e+000	0.000000e+000	0.000000e+000	0.000000e+000
1414200000.000	2.365203e-001	7.377022e-001	0.000000e+000	-0.000000e+000	0.000000e+000	0.000000e+000	0.000000e+000	0.000000e+000
1414300000.000	2.383031e-001	7.371752e-001	0.000000e+000	-0.000000e+000	0.000000e+000	0.000000e+000	0.000000e+000	0.000000e+000
1414400000.000	2.400808e-001	7.366301e-001	0.000000e+000	-0.000000e+000	0.000000e+000	0.000000e+000	0.000000e+000	0.000000e+000
1414500000.000	2.418623e-001	7.360989e-001	0.000000e+000	-0.000000e+000	0.000000e+000	0.000000e+000	0.000000e+000	0.000000e+000
1414600000.000	2.436365e-001	7.355459e-001	0.000000e+000	-0.000000e+000	0.000000e+000	0.000000e+000	0.000000e+000	0.000000e+000
1414700000.000	2.454115e-001	7.350115e-001	0.000000e+000	-0.000000e+000	0.000000e+000	0.000000e+000	0.000000e+000	0.000000e+000
1414800000.000	2.471994e-001	7.344316e-001	0.000000e+000	-0.000000e+000	0.000000e+000	0.000000e+000	0.000000e+000	0.000000e+000
1414900000.000	2.489813e-001	7.338673e-001	0.000000e+000	-0.000000e+000	0.000000e+000	0.000000e+000	0.000000e+000	0.000000e+000
1415000000.000	2.507566e-001	7.332848e-001	0.000000e+000	-0.000000e+000	0.000000e+000	0.000000e+000	0.000000e+000	0.000000e+000
1415100000.000	2.525276e-001	7.327188e-001	0.000000e+000	-0.000000e+000	0.000000e+000	0.000000e+000	0.000000e+000	0.000000e+000
1415200000.000	2.543118e-001	7.321466e-001	0.000000e+000	-0.000000e+000	0.000000e+000	0.000000e+000	0.000000e+000	0.000000e+000
1415300000.000	2.560761e-001	7.315647e-001	0.000000e+000	-0.000000e+000	0.000000e+000	0.000000e+000	0.000000e+000	0.000000e+000
