!Keysight Technologies,E5063A,MY54503975,A.05.08
!Date: Fri Mar 07 04:46:42 2025
!Data & Calibration Information:
!Freq	S11:NONE(--)	S21:RESPT(ON)	S12:NONE(--)	S22:NONE(--)
# Hz S RI R 50
1400000000.000	-8.374843e-003	7.761753e-001	-0.000000e+000	-0.000000e+000	0.000000e+000	0.000000e+000	0.000000e+000	0.000000e+000
1400100000.000	-6.683557e-003	7.760246e-001	-0.000000e+000	-0.000000e+000	0.000000e+000	0.000000e+000	0.000000e+000	0.000000e+000
1400200000.000	-5.044789e-003	7.758194e-001	-0.000000e+000	-0.000000e+000	0.000000e+000	0.000000e+000	0.000000e+000	0.000000e+000
1400300000.000	-3.401518e-003	7.755805e-001	-0.000000e+000	-0.000000e+000	0.000000e+000	0.000000e+000	0.000000e+000	0.000000e+000
1400400000.000	-1.818447e-003	7.752855e-001	-0.000000e+000	-0.000000e+000	0.000000e+000	0.000000e+000	0.000000e+000	0.000000e+000
1400500000.000	-3.145171e-004	7.749495e-001	-0.000000e+000	-0.000000e+000	0.000000e+000	0.000000e+000	0.000000e+000	0.000000e+000
1400600000.000	1.156349e-003	7.745291e-001	-0.000000e+000	-0.000000e+000	0.000000e+000	0.000000e+000	0.000000e+000	0.000000e+000
1400700000.000	2.559090e-003	7.740623e-001	-0.000000e+000	-0.000000e+000	0.000000e+000	0.000000e+000	0.000000e+000	0.000000e+000
1400800000.000	3.954158e-003	7.735206e-001	-0.000000e+000	-0.000000e+000	0.000000e+000	0.000000e+000	0.000000e+000	0.000000e+000
1400900000.000	5.337365e-003	7.729967e-001	-0.000000e+000	-0.000000e+000	0.000000e+000	0.000000e+000	0.000000e+000	0.000000e+000
1401000000.000	6.814908e-003	7.724567e-001	-0.000000e+000	-0.000000e+000	0.000000e+000	0.000000e+000	0.000000e+000	0.000000e+000
1401100000.000	8.467090e-003	7.718722e-001	-0.000000e+000	-0.000000e+000	0.000000e+000	0.000000e+000	0.000000e+000	0.000000e+000
1401200000.000	1.030156e-002	7.712872e-001	-0.000000e+000	-0.000000e+000	0.000000e+000	0.000000e+000	0.000000e+000	0.000000e+000
1401300000.000	1.226927e-002	7.707029e-001	-0.000000e+000	-0.000000e+000	0.000000e+000	0.000000e+000	0.000000e+000	0.000000e+000
1401400000.000	1.432070e-002	7.701697e-001	-0.000000e+000	-0.000000e+000	0.000000e+000	0.000000e+000	0.000000e+000	0.000000e+000
1401500000.000	1.643536e-002	7.697736e-001	-0.000000e+000	-0.000000e+000	0.000000e+000	0.000000e+000	0.000000e+000	0.000000e+000
1401600000.000	1.848674e-002	7.695523e-001	-0.000000e+000	-0.000000e+000	0.000000e+000	0.000000e+000	0.000000e+000	0.000000e+000
1401700000.000	2.056146e-002	7.694636e-001	-0.000000e+000	-0.000000e+000	0.000000e+000	0.000000e+000	0.000000e+000	0.000000e+000
1401800000.000	2.264417e-002	7.694828e-001	-0.000000e+000	-0.000000e+000	0.000000e+000	0.000000e+000	0.000000e+000	0.000000e+000
1401900000.000	2.464779e-002	7.695570e-001	-0.000000e+000	-0.000000e+000	0.000000e+000	0.000000e+000	0.000000e+000	0.000000e+000
1402000000.000	2.658934e-002	7.696493e-001	-0.000000e+000	-0.000000e+000	0.000000e+000	0.000000e+000	0.000000e+000	0.000000e+000
1402100000.000	2.840068e-002	7.696345e-001	-0.000000e+000	-0.000000e+000	0.000000e+000	0.000000e+000	0.000000e+000	0.000000e+000
1402200000.000	3.006898e-002	7.695073e-001	-0.000000e+000	-0.000000e+000	0.000000e+000	0.000000e+000	0.000000e+000	0.000000e+000
1402300000.000	3.158622e-002	7.693340e-001	-0.000000e+000	-0.000000e+000	0.000000e+000	0.000000e+000	0.000000e+000	0.000000e+000
1402400000.000	3.296730e-002	7.691783e-001	-0.000000e+000	-0.000000e+000	0.000000e+000	0.000000e+000	0.000000e+000	0.000000e+000
1402500000.000	3.428024e-002	7.691245e-001	-0.000000e+000	-0.000000e+000	0.000000e+000	0.000000e+000	0.000000e+000	0.000000e+000
1402600000.000	3.566592e-002	7.691359e-001	-0.000000e+000	-0.000000e+000	0.000000e+000	0.000000e+000	0.000000e+000	0.000000e+000
1402700000.000	3.719358e-002	7.692360e-001	-0.000000e+000	-0.000000e+000	0.000000e+000	0.000000e+000	0.000000e+000	0.000000e+000
1402800000.000	3.894166e-002	7.693026e-001	-0.000000e+000	-0.000000e+000	0.000000e+000	0.000000e+000	0.000000e+000	0.000000e+000
1402900000.000	4.083907e-002	7.693316e-001	-0.000000e+000	-0.000000e+000	0.000000e+000	0.000000e+000	0.000000e+000	0.000000e+000
1403000000.000	4.290302e-002	7.692795e-001	-0.000000e+000	-0.000000e+000	0.000000e+000	0.000000e+000	0.000000e+000	0.000000e+000
1403100000.000	4.504006e-002	7.690908e-001	-0.000000e+000	-0.000000e+000	0.000000e+000	0.000000e+000	0.000000e+000	0.000000e+000
1403200000.000	4.712706e-002	7.687987e-001	-0.000000e+000	-0.000000e+000	0.000000e+000	0.000000e+000	0.000000e+000	0.000000e+000
1403300000.000	4.916292e-002	7.684831e-001	-0.000000e+000	-0.000000e+000	0.000000e+000	0.000000e+000	0.000000e+000	0.000000e+000
1403400000.000	5.110756e-002	7.680856e-001	-0.000000e+000	-0.000000e+000	0.000000e+000	0.000000e+000	0.000000e+000	0.000000e+000
1403500000.000	5.293787e-002	7.677266e-001	-0.000000e+000	-0.000000e+000	0.000000e+000	0.000000e+000	0.000000e+000	0.000000e+000
1403600000.000	5.470041e-002	7.674013e-001	-0.000000e+000	-0.000000e+000	0.000000e+000	0.000000e+000	0.000000e+000	0.000000e+000
1403700000.000	5.641771e-002	7.671430e-001	-0.000000e+000	-0.000000e+000	0.000000e+000	0.000000e+000	0.000000e+000	0.000000e+000
1403800000.000	5.809946e-002	7.669460e-001	-0.000000e+000	-0.000000e+000	0.000000e+000	0.000000e+000	0.000000e+000	0.000000e+000
1403900000.000	5.980299e-002	7.668301e-001	-0.000000e+000	-0.000000e+000	0.000000e+000	0.000000e+000	0.000000e+000	0.000000e+000
1404000000.000	6.155518e-002	7.667243e-001	-0.000000e+000	-0.000000e+000	0.000000e+000	0.000000e+000	0.000000e+000	0.000000e+000
1404100000.000	6.329863e-002	7.666733e-001	-0.000000e+000	-0.000000e+000	0.000000e+000	0.000000e+000	0.000000e+000	0.000000e+000
1404200000.000	6.512559e-002	7.665754e-001	-0.000000e+000	-0.000000e+000	0.000000e+000	0.000000e+000	0.000000e+000	0.000000e+000
1404300000.000	6.696830e-002	7.664712e-001	-0.000000e+000	-0.000000e+000	0.000000e+000	0.000000e+000	0.000000e+000	0.000000e+000
1404400000.000	6.877311e-002	7.663465e-001	0.000000e+000	-0.000000e+000	0.000000e+000	0.000000e+000	0.000000e+000	0.000000e+000
1404500000.000	7.060514e-002	7.662018e-001	0.000000e+000	-0.000000e+000	0.000000e+000	0.000000e+000	0.000000e+000	0.000000e+000
1404600000.000	7.241544e-002	7.660704e-001	0.000000e+000	-0.000000e+000	0.000000e+000	0.000000e+000	0.000000e+000	0.000000e+000
1404700000.000	7.422870e-002	7.658871e-001	0.000000e+000	-0.000000e+000	0.000000e+000	0.000000e+000	0.000000e+000	0.000000e+000
1404800000.000	7.605020e-002	7.656556e-001	0.000000e+000	-0.000000e+000	0.000000e+000	0.000000e+000	0.000000e+000	0.000000e+000
1404900000.000	7.788345e-002	7.654309e-001	0.000000e+000	-0.000000e+000	0.000000e+000	0.000000e+000	0.000000e+000	0.000000e+000
1405000000.000	7.968489e-002	7.651938e-001	0.000000e+000	-0.000000e+000	0.000000e+000	0.000000e+000	0.000000e+000	0.000000e+000
1405100000.000	8.150062e-002	7.649677e-001	0.000000e+000	-0.000000e+000	0.000000e+000	0.000000e+000	0.000000e+000	0.000000e+000
1405200000.000	8.331029e-002	7.646965e-001	0.000000e+000	-0.000000e+000	0.000000e+000	0.000000e+000	0.000000e+000	0.000000e+000
1405300000.000	8.505109e-002	7.644781e-001	0.000000e+000	-0.000000e+000	0.000000e+000	0.000000e+000	0.000000e+000	0.000000e+000
1405400000.000	8.681190e-002	7.642464e-001	0.000000e+000	-0.000000e+000	0.000000e+000	0.000000e+000	0.000000e+000	0.000000e+000
1405500000.000	8.855465e-002	7.640281e-001	0.000000e+000	-0.000000e+000	0.000000e+000	0.000000e+000	0.000000e+000	0.000000e+000
1405600000.000	9.028843e-002	7.638013e-001	0.000000e+000	-0.000000e+000	0.000000e+000	0.000000e+000	0.000000e+000	0.000000e+000
1405700000.000	9.203154e-002	7.636174e-001	0.000000e+000	-0.000000e+000	0.000000e+000	0.000000e+000	0.000000e+000	0.000000e+000
1405800000.000	9.377991e-002	7.634024e-001	0.000000e+000	-0.000000e+000	0.000000e+000	0.000000e+000	0.000000e+000	0.000000e+000
1405900000.000	9.556398e-002	7.631912e-001	0.000000e+000	-0.000000e+000	0.000000e+000	0.000000e+000	0.000000e+000	0.000000e+000
1406000000.000	9.732036e-002	7.630356e-001	0.000000e+000	-0.000000e+000	0.000000e+000	0.000000e+000	0.000000e+000	0.000000e+000
1406100000.000	9.911252e-002	7.628105e-001	0.000000e+000	-0.000000e+000	0.000000e+000	0.000000e+000	0.000000e+000	0.000000e+000
1406200000.000	1.008938e-001	7.625982e-001	0.000000e+000	-0.000000e+000	0.000000e+000	0.000000e+000	0.000000e+000	0.000000e+000
1406300000.000	1.026773e-001	7.623868e-001	0.000000e+000	-0.000000e+000	0.000000e+000	0.000000e+000	0.000000e+000	0.000000e+000
1406400000.000	1.044526e-001	7.621669e-001	0.000000e+000	-0.000000e+000	0.000000e+000	0.000000e+000	0.000000e+000	0.000000e+000
1406500000.000	1.062214e-001	7.619347e-001	0.000000e+000	-0.000000e+000	0.000000e+000	0.000000e+000	0.000000e+000	0.000000e+000
1406600000.000	1.079851e-001	7.617000e-001	0.000000e+000	-0.000000e+000	0.000000e+000	0.000000e+000	0.000000e+000	0.000000e+000
1406700000.000	1.097740e-001	7.614792e-001	0.000000e+000	-0.000000e+000	0.000000e+000	0.000000e+000	0.000000e+000	0.000000e+000
1406800000.000	1.115370e-001	7.612488e-001	0.000000e+000	-0.000000e+000	0.000000e+000	0.000000e+000	0.000000e+000	0.000000e+000
1406900000.000	1.133260e-001	7.609682e-001	0.000000e+000	-0.000000e+000	0.000000e+000	0.000000e+000	0.000000e+000	0.000000e+000
1407000000.000	1.150777e-001	7.607396e-001	0.000000e+000	-0.000000e+000	0.000000e+000	0.000000e+000	0.000000e+000	0.000000e+000
1407100000.000	1.168597e-001	7.604499e-001	0.000000e+000	-0.000000e+000	0.000000e+000	0.000000e+000	0.000000e+000	0.000000e+000
1407200000.000	1.186219e-001	7.601719e-001	0.000000e+000	-0.000000e+000	0.000000e+000	0.000000e+000	0.000000e+000	0.000000e+000
1407300000.000	1.203624e-001	7.598838e-001	0.000000e+000	-0.000000e+000	0.000000e+000	0.000000e+000	0.000000e+000	0.000000e+000
1407400000.000	1.221168e-001	7.595893e-001	0.000000e+000	-0.000000e+000	0.000000e+000	0.000000e+000	0.000000e+000	0.000000e+000
1407500000.000	1.238414e-001	7.593292e-001	0.000000e+000	-0.000000e+000	0.000000e+000	0.000000e+000	0.000000e+000	0.000000e+000
1407600000.000	1.255750e-001	7.590183e-001	0.000000e+000	-0.000000e+000	0.000000e+000	0.000000e+000	0.000000e+000	0.000000e+000
1407700000.000	1.272989e-001	7.587328e-001	0.000000e+000	-0.000000e+000	0.000000e+000	0.000000e+000	0.000000e+000	0.000000e+000
1407800000.000	1.290314e-001	7.584243e-001	0.000000e+000	-0.000000e+000	0.000000e+000	0.000000e+000	0.000000e+000	0.000000e+000
1407900000.000	1.308157e-001	7.580893e-001	0.000000e+000	-0.000000e+000	0.000000e+000	0.000000e+000	0.000000e+000	0.000000e+000
1408000000.000	1.325342e-001	7.577640e-001	0.000000e+000	-0.000000e+000	0.000000e+000	0.000000e+000	0.000000e+000	0.000000e+000
1408100000.000	1.342763e-001	7.574564e-001	0.000000e+000	-0.000000e+000	0.000000e+000	0.000000e+000	0.000000e+000	0.000000e+000
1408200000.000	1.359997e-001	7.571502e-001	0.000000e+000	-0.000000e+000	0.000000e+000	0.000000e+000	0.000000e+000	0.000000e+000
1408300000.000	1.377240e-001	7.568384e-001	0.000000e+000	-0.000000e+000	0.000000e+000	0.000000e+000	0.000000e+000	0.000000e+000
1408400000.000	1.394330e-001	7.564896e-001	0.000000e+000	-0.000000e+000	0.000000e+000	0.000000e+000	0.000000e+000	0.000000e+000
1408500000.000	1.411654e-001	7.561542e-001	0.000000e+000	-0.000000e+000	0.000000e+000	0.000000e+000	0.000000e+000	0.000000e+000
1408600000.000	1.429019e-001	7.558137e-001	0.000000e+000	-0.000000e+000	0.000000e+000	0.000000e+000	0.000000e+000	0.000000e+000
1408700000.000	1.446129e-001	7.554660e-001	0.000000e+000	-0.000000e+000	0.000000e+000	0.000000e+000	0.000000e+000	0.000000e+000
1408800000.000	1.463703e-001	7.551271e-001	0.000000e+000	-0.000000e+000	0.000000e+000	0.000000e+000	0.000000e+000	0.000000e+000
1408900000.000	1.480795e-001	7.547861e-001	0.000000e+000	-0.000000e+000	0.000000e+000	0.000000e+000	0.000000e+000	0.000000e+000
1409000000.000	1.498088e-001	7.544577e-001	0.000000e+000	-0.000000e+000	0.000000e+000	0.000000e+000	0.000000e+000	0.000000e+000
1409100000.000	1.515203e-001	7.541276e-001	0.000000e+000	-0.000000e+000	0.000000e+000	0.000000e+000	0.000000e+000	0.000000e+000
1409200000.000	1.532344e-001	7.537664e-001	0.000000e+000	-0.000000e+000	0.000000e+000	0.000000e+000	0.000000e+000	0.000000e+000
1409300000.000	1.549455e-001	7.534170e-001	0.000000e+000	-0.000000e+000	0.000000e+000	0.000000e+000	0.000000e+000	0.000000e+000
1409400000.000	1.566619e-001	7.530615e-001	0.000000e+000	-0.000000e+000	0.000000e+000	0.000000e+000	0.000000e+000	0.000000e+000
1409500000.000	1.583547e-001	7.527031e-001	0.000000e+000	-0.000000e+000	0.000000e+000	0.000000e+000	0.000000e+000	0.000000e+000
1409600000.000	1.600655e-001	7.523542e-001	0.000000e+000	-0.000000e+000	0.000000e+000	0.000000e+000	0.000000e+000	0.000000e+000
1409700000.000	1.617910e-001	7.520105e-001	0.000000e+000	-0.000000e+000	0.000000e+000	0.000000e+000	0.000000e+000	0.000000e+000
1409800000.000	1.635135e-001	7.516206e-001	0.000000e+000	-0.000000e+000	0.000000e+000	0.000000e+000	0.000000e+000	0.000000e+000
1409900000.000	1.651982e-001	7.512609e-001	0.000000e+000	-0.000000e+000	0.000000e+000	0.000000e+000	0.000000e+000	0.000000e+000
1410000000.000	1.669226e-001	7.509091e-001	0.000000e+000	-0.000000e+000	0.000000e+000	0.000000e+000	0.000000e+000	0.000000e+000
1410100000.000	1.686223e-001	7.505520e-001	0.000000e+000	-0.000000e+000	0.000000e+000	0.000000e+000	0.000000e+000	0.000000e+000
1410200000.000	1.703250e-001	7.502133e-001	0.000000e+000	-0.000000e+000	0.000000e+000	0.000000e+000	0.000000e+000	0.000000e+000
1410300000.000	1.720255e-001	7.498680e-001	0.000000e+000	-0.000000e+000	0.000000e+000	0.000000e+000	0.000000e+000	0.000000e+000
1410400000.000	1.737414e-001	7.495036e-001	0.000000e+000	-0.000000e+000	0.000000e+000	0.000000e+000	0.000000e+000	0.000000e+000
1410500000.000	1.754461e-001	7.491545e-001	0.000000e+000	-0.000000e+000	0.000000e+000	0.000000e+000	0.000000e+000	0.000000e+000
1410600000.000	1.771720e-001	7.487977e-001	0.000000e+000	-0.000000e+000	0.000000e+000	0.000000e+000	0.000000e+000	0.000000e+000
1410700000.000	1.789023e-001	7.484151e-001	0.000000e+000	-0.000000e+000	0.000000e+000	0.000000e+000	0.000000e+000	0.000000e+000
1410800000.000	1.806246e-001	7.480630e-001	0.000000e+000	-0.000000e+000	0.000000e+000	0.000000e+000	0.000000e+000	0.000000e+000
1410900000.000	1.823747e-001	7.476709e-001	0.000000e+000	-0.000000e+000	0.000000e+000	0.000000e+000	0.000000e+000	0.000000e+000
1411000000.000	1.841206e-001	7.473092e-001	0.000000e+000	-0.000000e+000	0.000000e+000	0.000000e+000	0.000000e+000	0.000000e+000
1411100000.000	1.858625e-001	7.469208e-001	0.000000e+000	-0.000000e+000	0.000000e+000	0.000000e+000	0.000000e+000	0.000000e+000
1411200000.000	1.876211e-001	7.465595e-001	0.000000e+000	-0.000000e+000	0.000000e+000	0.000000e+000	0.000000e+000	0.000000e+000
1411300000.000	1.894088e-001	7.461580e-001	0.000000e+000	-0.000000e+000	0.000000e+000	0.000000e+000	0.000000e+000	0.000000e+000
1411400000.000	1.911462e-001	7.457765e-001	0.000000e+000	-0.000000e+000	0.000000e+000	0.000000e+000	0.000000e+000	0.000000e+000
1411500000.000	1.929443e-001	7.453729e-001	0.000000e+000	-0.000000e+000	0.000000e+000	0.000000e+000	0.000000e+000	0.000000e+000
1411600000.000	1.947224e-001	7.449528e-001	0.000000e+000	-0.000000e+000	0.000000e+000	0.000000e+000	0.000000e+000	0.000000e+000
1411700000.000	1.965110e-001	7.445576e-001	0.000000e+000	-0.000000e+000	0.000000e+000	0.000000e+000	0.000000e+000	0.000000e+000
1411800000.000	1.982979e-001	7.441484e-001	0.000000e+000	-0.000000e+000	0.000000e+000	0.000000e+000	0.000000e+000	0.000000e+000
1411900000.000	2.000840e-001	7.437062e-001	0.000000e+000	-0.000000e+000	0.000000e+000	0.000000e+000	0.000000e+000	0.000000e+000
1412000000.000	2.018681e-001	7.432618e-001	0.000000e+000	-0.000000e+000	0.000000e+000	0.000000e+000	0.000000e+000	0.000000e+000
1412100000.000	2.036367e-001	7.428170e-001	0.000000e+000	-0.000000e+000	0.000000e+000	0.000000e+000	0.000000e+000	0.000000e+000
1412200000.000	2.054278e-001	7.423672e-001	0.000000e+000	-0.000000e+000	0.000000e+000	0.000000e+000	0.000000e+000	0.000000e+000
1412300000.000	2.071660e-001	7.419374e-001	0.000000e+000	-0.000000e+000	0.000000e+000	0.000000e+000	0.000000e+000	0.000000e+000
1412400000.000	2.089509e-001	7.414684e-001	0.000000e+000	-0.000000e+000	0.000000e+000	0.000000e+000	0.000000e+000	0.000000e+000
1412500000.000	2.107335e-001	7.409996e-001	0.000000e+000	-0.000000e+000	0.000000e+000	0.000000e+000	0.000000e+000	0.000000e+000
1412600000.000	2.124863e-001	7.405101e-001	0.000000e+000	-0.000000e+000	0.000000e+000	0.000000e+000	0.000000e+000	0.000000e+000
1412700000.000	2.142814e-001	7.400081e-001	0.000000e+000	-0.000000e+000	0.000000e+000	0.000000e+000	0.000000e+000	0.000000e+000
1412800000.000	2.160552e-001	7.395131e-001	0.000000e+000	-0.000000e+000	0.000000e+000	0.000000e+000	0.000000e+000	0.000000e+000
1412900000.000	2.177938e-001	7.390267e-001	0.000000e+000	-0.000000e+000	0.000000e+000	0.000000e+000	0.000000e+000	0.000000e+000
1413000000.000	2.195547e-001	7.385353e-001	0.000000e+000	-0.000000e+000	0.000000e+000	0.000000e+000	0.000000e+000	0.000000e+000
1413100000.000	2.213123e-001	7.380232e-001	0.000000e+000	-0.000000e+000	0.000000e+000	0.000000e+000	0.000000e+000	0.000000e+000
1413200000.000	2.230691e-001	7.375384e-001	0.000000e+000	-0.000000e+000	0.000000e+000	0.000000e+000	0.000000e+000	0.000000e+000
1413300000.000	2.248377e-001	7.370454e-001	0.000000e+000	-0.000000e+000	0.000000e+000	0.000000e+000	0.000000e+000	0.000000e+000
1413400000.000	2.266047e-001	7.365389e-001	0.000000e+000	-0.000000e+000	0.000000e+000	0.000000e+000	0.000000e+000	0.000000e+000
1413500000.000	2.283692e-001	7.360414e-001	0.000000e+000	-0.000000e+000	0.000000e+000	0.000000e+000	0.000000e+000	0.000000e+000
1413600000.000	2.301207e-001	7.355364e-001	0.000000e+000	-0.000000e+000	0.000000e+000	0.000000e+000	0.000000e+000	0.000000e+000
1413700000.000	2.319006e-001	7.350049e-001	0.000000e+000	-0.000000e+000	0.000000e+000	0.000000e+000	0.000000e+000	0.000000e+000
1413800000.000	2.336734e-001	7.344691e-001	0.000000e+000	-0.000000e+000	0.000000e+000	0.000000e+000	0.000000e+000	0.000000e+000
1413900000.000	2.354297e-001	7.339698e-001	0.000000e+000	-0.000000e+000	0.000000e+000	0.000000e+000	0.000000e+000	0.000000e+000
1414000000.000	2.371925e-001	7.334336e-001	0.000000e+000	-0.000000e+000	0.000000e+000	0.000000e+000	0.000000e+000	0.000000e+000
1414100000.000	2.389587e-001	7.328932e-001	0.000000e+000	-0.000000e+000	0.000000e+000	0.000000e+000	0.000000e+000	0.000000e+000
1414200000.000	2.407026e-001	7.323421e-001	0.000000e+000	-0.000000e+000	0.000000e+000	0.000000e+000	0.000000e+000	0.000000e+000
1414300000.000	2.424877e-001	7.317999e-001	0.000000e+000	-0.000000e+000	0.000000e+000	0.000000e+000	0.000000e+000	0.000000e+000
1414400000.000	2.442372e-001	7.312585e-001	0.000000e+000	-0.000000e+000	0.000000e+000	0.000000e+000	0.000000e+000	0.000000e+000
1414500000.000	2.459843e-001	7.307081e-001	0.000000e+000	-0.000000e+000	0.000000e+000	0.000000e+000	0.000000e+000	0.000000e+000
1414600000.000	2.477498e-001	7.301359e-001	0.000000e+000	-0.000000e+000	0.000000e+000	0.000000e+000	0.000000e+000	0.000000e+000
1414700000.000	2.494848e-001	7.295838e-001	0.000000e+000	-0.000000e+000	0.000000e+000	0.000000e+000	0.000000e+000	0.000000e+000
1414800000.000	2.512434e-001	7.290076e-001	0.000000e+000	-0.000000e+000	0.000000e+000	0.000000e+000	0.000000e+000	0.000000e+000
1414900000.000	2.529990e-001	7.284506e-001	0.000000e+000	-0.000000e+000	0.000000e+000	0.000000e+000	0.000000e+000	0.000000e+000
1415000000.000	2.547519e-001	7.278508e-001	0.000000e+000	-0.000000e+000	0.000000e+000	0.000000e+000	0.000000e+000	0.000000e+000
1415100000.000	2.565103e-001	7.272655e-001	0.000000e+000	-0.000000e+000	0.000000e+000	0.000000e+000	0.000000e+000	0.000000e+000
1415200000.000	2.582564e-001	7.266840e-001	0.000000e+000	-0.000000e+000	0.000000e+000	0.000000e+000	0.000000e+000	0.000000e+000
1415300000.000	2.600169e-001	7.260885e-001	0.000000e+000	-0.000000e+000	0.000000e+000	0.000000e+000	0.000000e+000	0.000000e+000
