!Keysight Technologies,E5063A,MY54503975,A.05.08
!Date: Fri Mar 07 04:52:09 2025
!Data & Calibration Information:
!Freq	S11:NONE(--)	S21:RESPT(ON)	S12:NONE(--)	S22:NONE(--)
# Hz S RI R 50
1400000000.000	-1.119467e-002	7.756023e-001	-0.000000e+000	-0.000000e+000	0.000000e+000	0.000000e+000	0.000000e+000	0.000000e+000
1400100000.000	-1.004020e-002	7.757740e-001	-0.000000e+000	-0.000000e+000	0.000000e+000	0.000000e+000	0.000000e+000	0.000000e+000
1400200000.000	-8.942445e-003	7.759013e-001	-0.000000e+000	-0.000000e+000	0.000000e+000	0.000000e+000	0.000000e+000	0.000000e+000
1400300000.000	-7.778546e-003	7.760609e-001	-0.000000e+000	-0.000000e+000	0.000000e+000	0.000000e+000	0.000000e+000	0.000000e+000
1400400000.000	-6.564441e-003	7.762479e-001	-0.000000e+000	-0.000000e+000	0.000000e+000	0.000000e+000	0.000000e+000	0.000000e+000
1400500000.000	-5.245801e-003	7.763587e-001	-0.000000e+000	-0.000000e+000	0.000000e+000	0.000000e+000	0.000000e+000	0.000000e+000
1400600000.000	-3.716234e-003	7.763415e-001	-0.000000e+000	-0.000000e+000	0.000000e+000	0.000000e+000	0.000000e+000	0.000000e+000
1400700000.000	-2.054511e-003	7.761523e-001	-0.000000e+000	-0.000000e+000	0.000000e+000	0.000000e+000	0.000000e+000	0.000000e+000
1400800000.000	-2.546266e-004	7.756798e-001	-0.000000e+000	-0.000000e+000	0.000000e+000	0.000000e+000	0.000000e+000	0.000000e+000
1400900000.000	1.530108e-003	7.748957e-001	-0.000000e+000	-0.000000e+000	0.000000e+000	0.000000e+000	0.000000e+000	0.000000e+000
1401000000.000	3.192328e-003	7.739077e-001	-0.000000e+000	-0.000000e+000	0.000000e+000	0.000000e+000	0.000000e+000	0.000000e+000
1401100000.000	4.703022e-003	7.729970e-001	-0.000000e+000	-0.000000e+000	0.000000e+000	0.000000e+000	0.000000e+000	0.000000e+000
1401200000.000	5.943135e-003	7.724825e-001	-0.000000e+000	-0.000000e+000	0.000000e+000	0.000000e+000	0.000000e+000	0.000000e+000
1401300000.000	7.006256e-003	7.726028e-001	-0.000000e+000	-0.000000e+000	0.000000e+000	0.000000e+000	0.000000e+000	0.000000e+000
1401400000.000	8.051440e-003	7.732412e-001	-0.000000e+000	-0.000000e+000	0.000000e+000	0.000000e+000	0.000000e+000	0.000000e+000
1401500000.000	9.321307e-003	7.740011e-001	-0.000000e+000	-0.000000e+000	0.000000e+000	0.000000e+000	0.000000e+000	0.000000e+000
1401600000.000	1.082361e-002	7.742930e-001	-0.000000e+000	-0.000000e+000	0.000000e+000	0.000000e+000	0.000000e+000	0.000000e+000
1401700000.000	1.250973e-002	7.739144e-001	-0.000000e+000	-0.000000e+000	0.000000e+000	0.000000e+000	0.000000e+000	0.000000e+000
1401800000.000	1.438850e-002	7.730828e-001	-0.000000e+000	-0.000000e+000	0.000000e+000	0.000000e+000	0.000000e+000	0.000000e+000
1401900000.000	1.633137e-002	7.721748e-001	-0.000000e+000	-0.000000e+000	0.000000e+000	0.000000e+000	0.000000e+000	0.000000e+000
1402000000.000	1.815611e-002	7.716157e-001	-0.000000e+000	-0.000000e+000	0.000000e+000	0.000000e+000	0.000000e+000	0.000000e+000
1402100000.000	1.989990e-002	7.714951e-001	-0.000000e+000	-0.000000e+000	0.000000e+000	0.000000e+000	0.000000e+000	0.000000e+000
1402200000.000	2.177037e-002	7.717486e-001	-0.000000e+000	-0.000000e+000	0.000000e+000	0.000000e+000	0.000000e+000	0.000000e+000
1402300000.000	2.392585e-002	7.721087e-001	-0.000000e+000	-0.000000e+000	0.000000e+000	0.000000e+000	0.000000e+000	0.000000e+000
1402400000.000	2.632317e-002	7.722933e-001	-0.000000e+000	-0.000000e+000	0.000000e+000	0.000000e+000	0.000000e+000	0.000000e+000
1402500000.000	2.877266e-002	7.722479e-001	-0.000000e+000	-0.000000e+000	0.000000e+000	0.000000e+000	0.000000e+000	0.000000e+000
1402600000.000	3.118794e-002	7.720315e-001	-0.000000e+000	-0.000000e+000	0.000000e+000	0.000000e+000	0.000000e+000	0.000000e+000
1402700000.000	3.354454e-002	7.717419e-001	-0.000000e+000	-0.000000e+000	0.000000e+000	0.000000e+000	0.000000e+000	0.000000e+000
1402800000.000	3.575895e-002	7.714446e-001	-0.000000e+000	-0.000000e+000	0.000000e+000	0.000000e+000	0.000000e+000	0.000000e+000
1402900000.000	3.778379e-002	7.711747e-001	-0.000000e+000	-0.000000e+000	0.000000e+000	0.000000e+000	0.000000e+000	0.000000e+000
1403000000.000	3.970475e-002	7.709546e-001	-0.000000e+000	-0.000000e+000	0.000000e+000	0.000000e+000	0.000000e+000	0.000000e+000
1403100000.000	4.154659e-002	7.707501e-001	-0.000000e+000	-0.000000e+000	0.000000e+000	0.000000e+000	0.000000e+000	0.000000e+000
1403200000.000	4.336074e-002	7.706443e-001	-0.000000e+000	-0.000000e+000	0.000000e+000	0.000000e+000	0.000000e+000	0.000000e+000
1403300000.000	4.516621e-002	7.705711e-001	-0.000000e+000	-0.000000e+000	0.000000e+000	0.000000e+000	0.000000e+000	0.000000e+000
1403400000.000	4.700316e-002	7.705259e-001	-0.000000e+000	-0.000000e+000	0.000000e+000	0.000000e+000	0.000000e+000	0.000000e+000
1403500000.000	4.881630e-002	7.704958e-001	-0.000000e+000	-0.000000e+000	0.000000e+000	0.000000e+000	0.000000e+000	0.000000e+000
1403600000.000	5.067862e-002	7.704486e-001	-0.000000e+000	-0.000000e+000	0.000000e+000	0.000000e+000	0.000000e+000	0.000000e+000
1403700000.000	5.250452e-002	7.703748e-001	-0.000000e+000	-0.000000e+000	0.000000e+000	0.000000e+000	0.000000e+000	0.000000e+000
1403800000.000	5.433335e-002	7.702736e-001	-0.000000e+000	-0.000000e+000	0.000000e+000	0.000000e+000	0.000000e+000	0.000000e+000
1403900000.000	5.613357e-002	7.701590e-001	-0.000000e+000	-0.000000e+000	0.000000e+000	0.000000e+000	0.000000e+000	0.000000e+000
1404000000.000	5.788481e-002	7.700243e-001	-0.000000e+000	-0.000000e+000	0.000000e+000	0.000000e+000	0.000000e+000	0.000000e+000
1404100000.000	5.961639e-002	7.699218e-001	-0.000000e+000	-0.000000e+000	0.000000e+000	0.000000e+000	0.000000e+000	0.000000e+000
1404200000.000	6.133315e-002	7.698245e-001	-0.000000e+000	-0.000000e+000	0.000000e+000	0.000000e+000	0.000000e+000	0.000000e+000
1404300000.000	6.309165e-002	7.697233e-001	-0.000000e+000	-0.000000e+000	0.000000e+000	0.000000e+000	0.000000e+000	0.000000e+000
1404400000.000	6.489751e-002	7.696084e-001	0.000000e+000	-0.000000e+000	0.000000e+000	0.000000e+000	0.000000e+000	0.000000e+000
1404500000.000	6.672172e-002	7.695379e-001	0.000000e+000	-0.000000e+000	0.000000e+000	0.000000e+000	0.000000e+000	0.000000e+000
1404600000.000	6.859008e-002	7.693960e-001	0.000000e+000	-0.000000e+000	0.000000e+000	0.000000e+000	0.000000e+000	0.000000e+000
1404700000.000	7.044497e-002	7.692486e-001	0.000000e+000	-0.000000e+000	0.000000e+000	0.000000e+000	0.000000e+000	0.000000e+000
1404800000.000	7.229304e-002	7.691352e-001	0.000000e+000	-0.000000e+000	0.000000e+000	0.000000e+000	0.000000e+000	0.000000e+000
1404900000.000	7.411881e-002	7.689819e-001	0.000000e+000	-0.000000e+000	0.000000e+000	0.000000e+000	0.000000e+000	0.000000e+000
1405000000.000	7.593819e-002	7.688138e-001	0.000000e+000	-0.000000e+000	0.000000e+000	0.000000e+000	0.000000e+000	0.000000e+000
1405100000.000	7.773575e-002	7.686576e-001	0.000000e+000	-0.000000e+000	0.000000e+000	0.000000e+000	0.000000e+000	0.000000e+000
1405200000.000	7.956793e-002	7.684971e-001	0.000000e+000	-0.000000e+000	0.000000e+000	0.000000e+000	0.000000e+000	0.000000e+000
1405300000.000	8.136945e-002	7.683181e-001	0.000000e+000	-0.000000e+000	0.000000e+000	0.000000e+000	0.000000e+000	0.000000e+000
1405400000.000	8.318942e-002	7.681357e-001	0.000000e+000	-0.000000e+000	0.000000e+000	0.000000e+000	0.000000e+000	0.000000e+000
1405500000.000	8.499947e-002	7.679839e-001	0.000000e+000	-0.000000e+000	0.000000e+000	0.000000e+000	0.000000e+000	0.000000e+000
1405600000.000	8.685216e-002	7.677830e-001	0.000000e+000	-0.000000e+000	0.000000e+000	0.000000e+000	0.000000e+000	0.000000e+000
1405700000.000	8.866451e-002	7.676326e-001	0.000000e+000	-0.000000e+000	0.000000e+000	0.000000e+000	0.000000e+000	0.000000e+000
1405800000.000	9.046390e-002	7.674732e-001	0.000000e+000	-0.000000e+000	0.000000e+000	0.000000e+000	0.000000e+000	0.000000e+000
1405900000.000	9.227092e-002	7.672930e-001	0.000000e+000	-0.000000e+000	0.000000e+000	0.000000e+000	0.000000e+000	0.000000e+000
1406000000.000	9.405751e-002	7.671153e-001	0.000000e+000	-0.000000e+000	0.000000e+000	0.000000e+000	0.000000e+000	0.000000e+000
1406100000.000	9.583130e-002	7.669471e-001	0.000000e+000	-0.000000e+000	0.000000e+000	0.000000e+000	0.000000e+000	0.000000e+000
1406200000.000	9.761494e-002	7.667539e-001	0.000000e+000	-0.000000e+000	0.000000e+000	0.000000e+000	0.000000e+000	0.000000e+000
1406300000.000	9.939986e-002	7.665440e-001	0.000000e+000	-0.000000e+000	0.000000e+000	0.000000e+000	0.000000e+000	0.000000e+000
1406400000.000	1.011963e-001	7.663882e-001	0.000000e+000	-0.000000e+000	0.000000e+000	0.000000e+000	0.000000e+000	0.000000e+000
1406500000.000	1.030136e-001	7.662138e-001	0.000000e+000	-0.000000e+000	0.000000e+000	0.000000e+000	0.000000e+000	0.000000e+000
1406600000.000	1.048323e-001	7.660257e-001	0.000000e+000	-0.000000e+000	0.000000e+000	0.000000e+000	0.000000e+000	0.000000e+000
1406700000.000	1.066382e-001	7.658646e-001	0.000000e+000	-0.000000e+000	0.000000e+000	0.000000e+000	0.000000e+000	0.000000e+000
1406800000.000	1.084473e-001	7.656970e-001	0.000000e+000	-0.000000e+000	0.000000e+000	0.000000e+000	0.000000e+000	0.000000e+000
1406900000.000	1.102508e-001	7.654989e-001	0.000000e+000	-0.000000e+000	0.000000e+000	0.000000e+000	0.000000e+000	0.000000e+000
1407000000.000	1.120753e-001	7.652850e-001	0.000000e+000	-0.000000e+000	0.000000e+000	0.000000e+000	0.000000e+000	0.000000e+000
1407100000.000	1.138873e-001	7.650328e-001	0.000000e+000	-0.000000e+000	0.000000e+000	0.000000e+000	0.000000e+000	0.000000e+000
1407200000.000	1.157054e-001	7.647902e-001	0.000000e+000	-0.000000e+000	0.000000e+000	0.000000e+000	0.000000e+000	0.000000e+000
1407300000.000	1.175217e-001	7.645229e-001	0.000000e+000	-0.000000e+000	0.000000e+000	0.000000e+000	0.000000e+000	0.000000e+000
1407400000.000	1.193436e-001	7.642270e-001	0.000000e+000	-0.000000e+000	0.000000e+000	0.000000e+000	0.000000e+000	0.000000e+000
1407500000.000	1.211827e-001	7.638936e-001	0.000000e+000	-0.000000e+000	0.000000e+000	0.000000e+000	0.000000e+000	0.000000e+000
1407600000.000	1.230238e-001	7.635298e-001	0.000000e+000	-0.000000e+000	0.000000e+000	0.000000e+000	0.000000e+000	0.000000e+000
1407700000.000	1.248411e-001	7.632137e-001	0.000000e+000	-0.000000e+000	0.000000e+000	0.000000e+000	0.000000e+000	0.000000e+000
1407800000.000	1.266607e-001	7.628410e-001	0.000000e+000	-0.000000e+000	0.000000e+000	0.000000e+000	0.000000e+000	0.000000e+000
1407900000.000	1.284730e-001	7.624360e-001	0.000000e+000	-0.000000e+000	0.000000e+000	0.000000e+000	0.000000e+000	0.000000e+000
1408000000.000	1.302724e-001	7.620351e-001	0.000000e+000	-0.000000e+000	0.000000e+000	0.000000e+000	0.000000e+000	0.000000e+000
1408100000.000	1.320566e-001	7.616422e-001	0.000000e+000	-0.000000e+000	0.000000e+000	0.000000e+000	0.000000e+000	0.000000e+000
1408200000.000	1.338200e-001	7.612218e-001	0.000000e+000	-0.000000e+000	0.000000e+000	0.000000e+000	0.000000e+000	0.000000e+000
1408300000.000	1.355913e-001	7.607848e-001	0.000000e+000	-0.000000e+000	0.000000e+000	0.000000e+000	0.000000e+000	0.000000e+000
1408400000.000	1.373455e-001	7.603662e-001	0.000000e+000	-0.000000e+000	0.000000e+000	0.000000e+000	0.000000e+000	0.000000e+000
1408500000.000	1.390534e-001	7.599490e-001	0.000000e+000	-0.000000e+000	0.000000e+000	0.000000e+000	0.000000e+000	0.000000e+000
1408600000.000	1.407609e-001	7.595148e-001	0.000000e+000	-0.000000e+000	0.000000e+000	0.000000e+000	0.000000e+000	0.000000e+000
1408700000.000	1.424414e-001	7.591024e-001	0.000000e+000	-0.000000e+000	0.000000e+000	0.000000e+000	0.000000e+000	0.000000e+000
1408800000.000	1.440988e-001	7.587292e-001	0.000000e+000	-0.000000e+000	0.000000e+000	0.000000e+000	0.000000e+000	0.000000e+000
1408900000.000	1.457682e-001	7.583513e-001	0.000000e+000	-0.000000e+000	0.000000e+000	0.000000e+000	0.000000e+000	0.000000e+000
1409000000.000	1.474143e-001	7.580092e-001	0.000000e+000	-0.000000e+000	0.000000e+000	0.000000e+000	0.000000e+000	0.000000e+000
1409100000.000	1.490982e-001	7.576322e-001	0.000000e+000	-0.000000e+000	0.000000e+000	0.000000e+000	0.000000e+000	0.000000e+000
1409200000.000	1.508054e-001	7.572801e-001	0.000000e+000	-0.000000e+000	0.000000e+000	0.000000e+000	0.000000e+000	0.000000e+000
1409300000.000	1.525120e-001	7.569177e-001	0.000000e+000	-0.000000e+000	0.000000e+000	0.000000e+000	0.000000e+000	0.000000e+000
1409400000.000	1.542374e-001	7.565806e-001	0.000000e+000	-0.000000e+000	0.000000e+000	0.000000e+000	0.000000e+000	0.000000e+000
1409500000.000	1.559745e-001	7.562169e-001	0.000000e+000	-0.000000e+000	0.000000e+000	0.000000e+000	0.000000e+000	0.000000e+000
1409600000.000	1.577035e-001	7.558829e-001	0.000000e+000	-0.000000e+000	0.000000e+000	0.000000e+000	0.000000e+000	0.000000e+000
1409700000.000	1.594584e-001	7.554851e-001	0.000000e+000	-0.000000e+000	0.000000e+000	0.000000e+000	0.000000e+000	0.000000e+000
1409800000.000	1.611971e-001	7.551060e-001	0.000000e+000	-0.000000e+000	0.000000e+000	0.000000e+000	0.000000e+000	0.000000e+000
1409900000.000	1.629390e-001	7.547431e-001	0.000000e+000	-0.000000e+000	0.000000e+000	0.000000e+000	0.000000e+000	0.000000e+000
1410000000.000	1.646961e-001	7.543920e-001	0.000000e+000	-0.000000e+000	0.000000e+000	0.000000e+000	0.000000e+000	0.000000e+000
1410100000.000	1.664574e-001	7.540308e-001	0.000000e+000	-0.000000e+000	0.000000e+000	0.000000e+000	0.000000e+000	0.000000e+000
1410200000.000	1.682292e-001	7.536664e-001	0.000000e+000	-0.000000e+000	0.000000e+000	0.000000e+000	0.000000e+000	0.000000e+000
1410300000.000	1.700071e-001	7.533208e-001	0.000000e+000	-0.000000e+000	0.000000e+000	0.000000e+000	0.000000e+000	0.000000e+000
1410400000.000	1.717481e-001	7.529661e-001	0.000000e+000	-0.000000e+000	0.000000e+000	0.000000e+000	0.000000e+000	0.000000e+000
1410500000.000	1.734806e-001	7.525800e-001	0.000000e+000	-0.000000e+000	0.000000e+000	0.000000e+000	0.000000e+000	0.000000e+000
1410600000.000	1.751608e-001	7.522012e-001	0.000000e+000	-0.000000e+000	0.000000e+000	0.000000e+000	0.000000e+000	0.000000e+000
1410700000.000	1.768468e-001	7.518324e-001	0.000000e+000	-0.000000e+000	0.000000e+000	0.000000e+000	0.000000e+000	0.000000e+000
1410800000.000	1.785103e-001	7.514790e-001	0.000000e+000	-0.000000e+000	0.000000e+000	0.000000e+000	0.000000e+000	0.000000e+000
1410900000.000	1.801939e-001	7.511457e-001	0.000000e+000	-0.000000e+000	0.000000e+000	0.000000e+000	0.000000e+000	0.000000e+000
1411000000.000	1.819023e-001	7.508307e-001	0.000000e+000	-0.000000e+000	0.000000e+000	0.000000e+000	0.000000e+000	0.000000e+000
1411100000.000	1.836596e-001	7.505055e-001	0.000000e+000	-0.000000e+000	0.000000e+000	0.000000e+000	0.000000e+000	0.000000e+000
1411200000.000	1.854408e-001	7.501736e-001	0.000000e+000	-0.000000e+000	0.000000e+000	0.000000e+000	0.000000e+000	0.000000e+000
1411300000.000	1.872248e-001	7.498491e-001	0.000000e+000	-0.000000e+000	0.000000e+000	0.000000e+000	0.000000e+000	0.000000e+000
1411400000.000	1.890068e-001	7.494727e-001	0.000000e+000	-0.000000e+000	0.000000e+000	0.000000e+000	0.000000e+000	0.000000e+000
1411500000.000	1.907903e-001	7.491252e-001	0.000000e+000	-0.000000e+000	0.000000e+000	0.000000e+000	0.000000e+000	0.000000e+000
1411600000.000	1.925885e-001	7.488027e-001	0.000000e+000	-0.000000e+000	0.000000e+000	0.000000e+000	0.000000e+000	0.000000e+000
1411700000.000	1.944186e-001	7.484515e-001	0.000000e+000	-0.000000e+000	0.000000e+000	0.000000e+000	0.000000e+000	0.000000e+000
1411800000.000	1.962569e-001	7.480880e-001	0.000000e+000	-0.000000e+000	0.000000e+000	0.000000e+000	0.000000e+000	0.000000e+000
1411900000.000	1.981041e-001	7.476947e-001	0.000000e+000	-0.000000e+000	0.000000e+000	0.000000e+000	0.000000e+000	0.000000e+000
1412000000.000	1.999593e-001	7.472808e-001	0.000000e+000	-0.000000e+000	0.000000e+000	0.000000e+000	0.000000e+000	0.000000e+000
1412100000.000	2.018116e-001	7.468302e-001	0.000000e+000	-0.000000e+000	0.000000e+000	0.000000e+000	0.000000e+000	0.000000e+000
1412200000.000	2.036678e-001	7.463888e-001	0.000000e+000	-0.000000e+000	0.000000e+000	0.000000e+000	0.000000e+000	0.000000e+000
1412300000.000	2.055304e-001	7.459252e-001	0.000000e+000	-0.000000e+000	0.000000e+000	0.000000e+000	0.000000e+000	0.000000e+000
1412400000.000	2.073589e-001	7.454541e-001	0.000000e+000	-0.000000e+000	0.000000e+000	0.000000e+000	0.000000e+000	0.000000e+000
1412500000.000	2.091608e-001	7.449323e-001	0.000000e+000	-0.000000e+000	0.000000e+000	0.000000e+000	0.000000e+000	0.000000e+000
1412600000.000	2.109370e-001	7.444418e-001	0.000000e+000	-0.000000e+000	0.000000e+000	0.000000e+000	0.000000e+000	0.000000e+000
1412700000.000	2.127049e-001	7.439036e-001	0.000000e+000	-0.000000e+000	0.000000e+000	0.000000e+000	0.000000e+000	0.000000e+000
1412800000.000	2.144918e-001	7.433764e-001	0.000000e+000	-0.000000e+000	0.000000e+000	0.000000e+000	0.000000e+000	0.000000e+000
1412900000.000	2.162894e-001	7.428126e-001	0.000000e+000	-0.000000e+000	0.000000e+000	0.000000e+000	0.000000e+000	0.000000e+000
1413000000.000	2.181189e-001	7.422311e-001	0.000000e+000	-0.000000e+000	0.000000e+000	0.000000e+000	0.000000e+000	0.000000e+000
1413100000.000	2.199407e-001	7.416249e-001	0.000000e+000	-0.000000e+000	0.000000e+000	0.000000e+000	0.000000e+000	0.000000e+000
1413200000.000	2.217751e-001	7.410445e-001	0.000000e+000	-0.000000e+000	0.000000e+000	0.000000e+000	0.000000e+000	0.000000e+000
1413300000.000	2.236201e-001	7.404556e-001	0.000000e+000	-0.000000e+000	0.000000e+000	0.000000e+000	0.000000e+000	0.000000e+000
1413400000.000	2.254902e-001	7.398666e-001	0.000000e+000	-0.000000e+000	0.000000e+000	0.000000e+000	0.000000e+000	0.000000e+000
1413500000.000	2.273501e-001	7.392928e-001	0.000000e+000	-0.000000e+000	0.000000e+000	0.000000e+000	0.000000e+000	0.000000e+000
1413600000.000	2.292011e-001	7.387455e-001	0.000000e+000	-0.000000e+000	0.000000e+000	0.000000e+000	0.000000e+000	0.000000e+000
1413700000.000	2.310499e-001	7.382166e-001	0.000000e+000	-0.000000e+000	0.000000e+000	0.000000e+000	0.000000e+000	0.000000e+000
1413800000.000	2.328780e-001	7.376701e-001	0.000000e+000	-0.000000e+000	0.000000e+000	0.000000e+000	0.000000e+000	0.000000e+000
1413900000.000	2.347133e-001	7.371370e-001	0.000000e+000	-0.000000e+000	0.000000e+000	0.000000e+000	0.000000e+000	0.000000e+000
1414000000.000	2.365175e-001	7.365657e-001	0.000000e+000	-0.000000e+000	0.000000e+000	0.000000e+000	0.000000e+000	0.000000e+000
1414100000.000	2.382941e-001	7.360383e-001	0.000000e+000	-0.000000e+000	0.000000e+000	0.000000e+000	0.000000e+000	0.000000e+000
1414200000.000	2.400615e-001	7.354873e-001	0.000000e+000	-0.000000e+000	0.000000e+000	0.000000e+000	0.000000e+000	0.000000e+000
1414300000.000	2.417816e-001	7.349135e-001	0.000000e+000	-0.000000e+000	0.000000e+000	0.000000e+000	0.000000e+000	0.000000e+000
1414400000.000	2.435130e-001	7.343396e-001	0.000000e+000	-0.000000e+000	0.000000e+000	0.000000e+000	0.000000e+000	0.000000e+000
1414500000.000	2.452344e-001	7.337739e-001	0.000000e+000	-0.000000e+000	0.000000e+000	0.000000e+000	0.000000e+000	0.000000e+000
1414600000.000	2.469494e-001	7.331778e-001	0.000000e+000	-0.000000e+000	0.000000e+000	0.000000e+000	0.000000e+000	0.000000e+000
1414700000.000	2.486587e-001	7.325910e-001	0.000000e+000	-0.000000e+000	0.000000e+000	0.000000e+000	0.000000e+000	0.000000e+000
1414800000.000	2.503630e-001	7.320097e-001	0.000000e+000	-0.000000e+000	0.000000e+000	0.000000e+000	0.000000e+000	0.000000e+000
1414900000.000	2.520795e-001	7.314498e-001	0.000000e+000	-0.000000e+000	0.000000e+000	0.000000e+000	0.000000e+000	0.000000e+000
1415000000.000	2.538209e-001	7.308822e-001	0.000000e+000	-0.000000e+000	0.000000e+000	0.000000e+000	0.000000e+000	0.000000e+000
1415100000.000	2.555699e-001	7.303495e-001	0.000000e+000	-0.000000e+000	0.000000e+000	0.000000e+000	0.000000e+000	0.000000e+000
1415200000.000	2.573470e-001	7.297902e-001	0.000000e+000	-0.000000e+000	0.000000e+000	0.000000e+000	0.000000e+000	0.000000e+000
1415300000.000	2.591400e-001	7.292167e-001	0.000000e+000	-0.000000e+000	0.000000e+000	0.000000e+000	0.000000e+000	0.000000e+000
